Title: pnp wilson current mirror spice testbench
Date: Thu Sep 21 12:32:56  2017
Plotname: DC transfer characteristic
Flags: real
No. Variables: 7
No. Points: 51
Variables:
	0	n2	voltage
	1	n1	voltage
	2	n3	voltage
	3	n_pos	voltage
	4	v-sweep	voltage
	5	i(v1)	current
	6	i(v2)	current
Values:
 0	0.000000000000000e+00
	4.288264949538997e+00
	3.579792822192372e+00
	5.000000000000000e+00
	0.000000000000000e+00
	-1.002112467195157e-04
	4.853623764869002e-05

 1	1.000000000000000e-01
	4.288267344297310e+00
	3.579711701344651e+00
	5.000000000000000e+00
	1.000000000000000e-01
	-1.002055665939167e-04
	4.852805150723648e-05

 2	2.000000000000000e-01
	4.288269684441203e+00
	3.579628915870932e+00
	5.000000000000000e+00
	2.000000000000000e-01
	-1.001998592529904e-04
	4.851983257023494e-05

 3	3.000000000000000e-01
	4.288272031858579e+00
	3.579546014041997e+00
	5.000000000000000e+00
	3.000000000000000e-01
	-1.001941341091384e-04
	4.851158787668212e-05

 4	4.000000000000000e-01
	4.288274393531948e+00
	3.579462880872692e+00
	5.000000000000000e+00
	4.000000000000000e-01
	-1.001883740949991e-04
	4.850329273897941e-05

 5	5.000000000000000e-01
	4.288276769588112e+00
	3.579379515229272e+00
	5.000000000000000e+00
	5.000000000000000e-01
	-1.001825789015837e-04
	4.849494671005990e-05

 6	6.000000000000000e-01
	4.288279160154781e+00
	3.579295915937995e+00
	5.000000000000000e+00
	6.000000000000000e-01
	-1.001767482175994e-04
	4.848654933930325e-05

 7	7.000000000000000e-01
	4.288281565361139e+00
	3.579212081817095e+00
	5.000000000000000e+00
	7.000000000000000e-01
	-1.001708817283745e-04
	4.847810017155098e-05

 8	7.999999999999999e-01
	4.288283985337872e+00
	3.579128011677202e+00
	5.000000000000000e+00
	7.999999999999999e-01
	-1.001649791154066e-04
	4.846959874582721e-05

 9	8.999999999999999e-01
	4.288286420217137e+00
	3.579043704320573e+00
	5.000000000000000e+00
	8.999999999999999e-01
	-1.001590400567243e-04
	4.846104459606585e-05

 10	9.999999999999999e-01
	4.288288870132666e+00
	3.578959158541140e+00
	5.000000000000000e+00
	9.999999999999999e-01
	-1.001530642265533e-04
	4.845243725100042e-05

 11	1.100000000000000e+00
	4.288291335219697e+00
	3.578874373124578e+00
	5.000000000000000e+00
	1.100000000000000e+00
	-1.001470512954697e-04
	4.844377623379709e-05

 12	1.200000000000000e+00
	4.288293815615070e+00
	3.578789346848120e+00
	5.000000000000000e+00
	1.200000000000000e+00
	-1.001410009300804e-04
	4.843506106224260e-05

 13	1.300000000000000e+00
	4.288296311457208e+00
	3.578704078480642e+00
	5.000000000000000e+00
	1.300000000000000e+00
	-1.001349127932871e-04
	4.842629124841760e-05

 14	1.400000000000000e+00
	4.288298822886151e+00
	3.578618566782363e+00
	5.000000000000000e+00
	1.400000000000000e+00
	-1.001287865439598e-04
	4.841746629889211e-05

 15	1.500000000000000e+00
	4.288301350043565e+00
	3.578532810505075e+00
	5.000000000000000e+00
	1.500000000000000e+00
	-1.001226218372009e-04
	4.840858571429499e-05

 16	1.600000000000000e+00
	4.288303893072809e+00
	3.578446808391612e+00
	5.000000000000000e+00
	1.600000000000000e+00
	-1.001164183238451e-04
	4.839964898984122e-05

 17	1.700000000000000e+00
	4.288306452118893e+00
	3.578360559176408e+00
	5.000000000000000e+00
	1.700000000000000e+00
	-1.001101756508138e-04
	4.839065561439799e-05

 18	1.800000000000000e+00
	4.288309027328560e+00
	3.578274061584966e+00
	5.000000000000000e+00
	1.800000000000000e+00
	-1.001038934607887e-04
	4.838160507103810e-05

 19	1.900000000000001e+00
	4.288311618850277e+00
	3.578187314333846e+00
	5.000000000000000e+00
	1.900000000000001e+00
	-1.000975713923574e-04
	4.837249683683435e-05

 20	2.000000000000000e+00
	4.288314226834276e+00
	3.578100316130643e+00
	5.000000000000000e+00
	2.000000000000000e+00
	-1.000912090798056e-04
	4.836333038273945e-05

 21	2.100000000000001e+00
	4.288316851432565e+00
	3.578013065674023e+00
	5.000000000000000e+00
	2.100000000000001e+00
	-1.000848061531029e-04
	4.835410517335095e-05

 22	2.200000000000001e+00
	4.288319492798980e+00
	3.577925561653554e+00
	5.000000000000000e+00
	2.200000000000001e+00
	-1.000783622378335e-04
	4.834482066695201e-05

 23	2.300000000000001e+00
	4.288322151089179e+00
	3.577837802749491e+00
	5.000000000000000e+00
	2.300000000000001e+00
	-1.000718769550921e-04
	4.833547631559292e-05

 24	2.400000000000001e+00
	4.288324826460680e+00
	3.577749787633075e+00
	5.000000000000000e+00
	2.400000000000001e+00
	-1.000653499216089e-04
	4.832607156450000e-05

 25	2.500000000000001e+00
	4.288327519072898e+00
	3.577661514966022e+00
	5.000000000000000e+00
	2.500000000000001e+00
	-1.000587807494721e-04
	4.831660585259039e-05

 26	2.600000000000001e+00
	4.288330229087181e+00
	3.577572983400704e+00
	5.000000000000000e+00
	2.600000000000001e+00
	-1.000521690460165e-04
	4.830707861200887e-05

 27	2.700000000000001e+00
	4.288332956666813e+00
	3.577484191580166e+00
	5.000000000000000e+00
	2.700000000000001e+00
	-1.000455144140253e-04
	4.829748926795394e-05

 28	2.800000000000001e+00
	4.288335701977053e+00
	3.577395138137710e+00
	5.000000000000000e+00
	2.800000000000001e+00
	-1.000388164514518e-04
	4.828783723893242e-05

 29	2.900000000000001e+00
	4.288338465185205e+00
	3.577305821697259e+00
	5.000000000000000e+00
	2.900000000000001e+00
	-1.000320747512884e-04
	4.827812193620518e-05

 30	3.000000000000001e+00
	4.288341246460649e+00
	3.577216240872858e+00
	5.000000000000000e+00
	3.000000000000001e+00
	-1.000252889016076e-04
	4.826834276412412e-05

 31	3.100000000000001e+00
	4.288344045974980e+00
	3.577126394269491e+00
	5.000000000000000e+00
	3.100000000000001e+00
	-1.000184584849170e-04
	4.825849911897946e-05

 32	3.200000000000002e+00
	4.288346863902481e+00
	3.577036280483123e+00
	5.000000000000000e+00
	3.200000000000002e+00
	-1.000115830774584e-04
	4.824859038877333e-05

 33	3.300000000000002e+00
	4.288349700422591e+00
	3.576945898105877e+00
	5.000000000000000e+00
	3.300000000000002e+00
	-1.000046622426226e-04
	4.823861594672584e-05

 34	3.400000000000002e+00
	4.288352555745438e+00
	3.576855245777042e+00
	5.000000000000000e+00
	3.400000000000002e+00
	-9.999769546786136e-05
	4.822857508946128e-05

 35	3.500000000000002e+00
	4.288355430299911e+00
	3.576764322558591e+00
	5.000000000000000e+00
	3.500000000000002e+00
	-9.999068169832398e-05
	4.821846658363202e-05

 36	3.600000000000002e+00
	4.288358325944209e+00
	3.576673130355176e+00
	5.000000000000000e+00
	3.600000000000002e+00
	-9.998361633407893e-05
	4.820828573508153e-05

 37	3.700000000000002e+00
	4.288361254495722e+00
	3.576581690952551e+00
	5.000000000000000e+00
	3.700000000000002e+00
	-9.997647007614630e-05
	4.819800328680936e-05

 38	3.800000000000002e+00
	4.288364297143823e+00
	3.576490163834753e+00
	5.000000000000000e+00
	3.800000000000002e+00
	-9.996904158813408e-05
	4.818739664994194e-05

 39	3.900000000000002e+00
	4.288368037641375e+00
	3.576399663566426e+00
	5.000000000000000e+00
	3.900000000000002e+00
	-9.995988333193900e-05
	4.817378242652146e-05

 40	4.000000000000002e+00
	4.288377609361551e+00
	3.576318002170578e+00
	5.000000000000000e+00
	4.000000000000002e+00
	-9.993626934727551e-05
	4.808366982442334e-05

 41	4.100000000000001e+00
	4.288480171479591e+00
	3.576303444021578e+00
	5.000000000000000e+00
	4.100000000000001e+00
	-9.968227584548212e-05
	4.482294338052466e-05

 42	4.200000000000001e+00
	4.291115818338558e+00
	3.576890153061144e+00
	5.000000000000000e+00
	4.200000000000001e+00
	-9.331204663728943e-05
	-5.724927414544386e-05

 43	4.300000000000001e+00
	4.313542017000764e+00
	3.588613651102153e+00
	5.000000000000000e+00
	4.300000000000001e+00
	-5.039572842686219e-05
	-5.409431084709331e-04

 44	4.400000000000000e+00
	4.369473539190948e+00
	3.639082720614303e+00
	5.000000000000000e+00
	4.400000000000000e+00
	-7.587032312246500e-06
	-9.443858595447763e-04

 45	4.500000000000000e+00
	4.462289501408230e+00
	3.731164660196830e+00
	5.000000000000000e+00
	4.500000000000000e+00
	-2.210537414851221e-07
	-1.012498613220494e-03

 46	4.600000000000000e+00
	4.562238486496350e+00
	3.831179370681487e+00
	5.000000000000000e+00
	4.600000000000000e+00
	-4.872423672863668e-09
	-1.013506915124482e-03

 47	4.699999999999999e+00
	4.662233647052434e+00
	3.931174175647141e+00
	5.000000000000000e+00
	4.699999999999999e+00
	-1.212471373301938e-10
	-1.013551911902884e-03

 48	4.799999999999999e+00
	4.762233995626589e+00
	4.031174663316643e+00
	5.000000000000000e+00
	4.799999999999999e+00
	-4.851535839733856e-12
	-1.013549592075922e-03

 49	4.899999999999999e+00
	4.862233990033705e+00
	4.131174658444959e+00
	5.000000000000000e+00
	4.899999999999999e+00
	-6.384684447802158e-13
	-1.013549636001187e-03

 50	4.999999999999998e+00
	4.962233988186004e+00
	4.231174656799071e+00
	5.000000000000000e+00
	4.999999999999998e+00
	-1.242131397738433e-13
	-1.013549650712454e-03

