Title: emitter resistors negative feedback simulation testbench
Date: Tue Sep 19 15:29:29  2017
Plotname: DC transfer characteristic
Flags: real
No. Variables: 8
No. Points: 51
Variables:
	0	n2	voltage
	1	n1	voltage
	2	n3	voltage
	3	n4	voltage
	4	n_pos	voltage
	5	v-sweep	voltage
	6	i(v1)	current
	7	i(v2)	current
Values:
 0	0.000000000000000e+00
	6.247831215282152e-01
	2.483481178838083e-02
	7.676144867173101e-04
	5.000000000000000e+00
	0.000000000000000e+00
	-5.000000000000000e-05
	1.476236569996055e-05

 1	1.000000000000000e-01
	7.176663637962842e-01
	8.540532557670623e-02
	7.371880621223981e-02
	5.000000000000000e+00
	1.000000000000000e-01
	-5.000000000000000e-05
	-4.131941125697639e-08

 2	2.000000000000000e-01
	8.060699873007712e-01
	1.576181548250258e-01
	1.513595743533435e-01
	5.000000000000000e+00
	2.000000000000000e-01
	-5.000000000000000e-05
	-1.651835607773731e-05

 3	3.000000000000000e-01
	8.867741727479299e-01
	2.284089307023771e-01
	2.254924344078540e-01
	5.000000000000000e+00
	3.000000000000000e-01
	-5.000000000000000e-05
	-3.276946250115418e-05

 4	4.000000000000000e-01
	9.462762541659486e-01
	2.822152694627850e-01
	2.814073173851134e-01
	5.000000000000000e+00
	4.000000000000000e-01
	-5.000000000000000e-05
	-4.540628758963970e-05

 5	5.000000000000000e-01
	9.621236992980070e-01
	2.967082681510121e-01
	2.964763930629579e-01
	5.000000000000000e+00
	5.000000000000000e-01
	-5.000000000000000e-05
	-4.892120136202982e-05

 6	6.000000000000000e-01
	9.629682485992710e-01
	2.974600549857703e-01
	2.973079923277995e-01
	5.000000000000000e+00
	6.000000000000000e-01
	-5.000000000000000e-05
	-4.912894701594785e-05

 7	7.000000000000000e-01
	9.629845704191415e-01
	2.975014013551885e-01
	2.973859501929833e-01
	5.000000000000000e+00
	7.000000000000000e-01
	-5.000000000000000e-05
	-4.914792461318845e-05

 8	7.999999999999999e-01
	9.629938792838233e-01
	2.975101549521832e-01
	2.974387341154268e-01
	5.000000000000000e+00
	7.999999999999999e-01
	-5.000000000000000e-05
	-4.915815577230459e-05

 9	8.999999999999999e-01
	9.629990677608705e-01
	2.975149217385571e-01
	2.974873487149097e-01
	5.000000000000000e+00
	8.999999999999999e-01
	-5.000000000000000e-05
	-4.916705253577943e-05

 10	9.999999999999999e-01
	9.630036587107460e-01
	2.975191293331601e-01
	2.975353055106921e-01
	5.000000000000000e+00
	9.999999999999999e-01
	-5.000000000000000e-05
	-4.917574698968190e-05

 11	1.100000000000000e+00
	9.630081487334197e-01
	2.975232444326272e-01
	2.975830861110388e-01
	5.000000000000000e+00
	1.100000000000000e+00
	-5.000000000000000e-05
	-4.918439667277261e-05

 12	1.200000000000000e+00
	9.630126107954545e-01
	2.975273339107000e-01
	2.976307607214990e-01
	5.000000000000000e+00
	1.200000000000000e+00
	-5.000000000000000e-05
	-4.919302442086566e-05

 13	1.300000000000000e+00
	9.630170557750387e-01
	2.975314077371814e-01
	2.976783400546157e-01
	5.000000000000000e+00
	1.300000000000000e+00
	-5.000000000000000e-05
	-4.920163368081562e-05

 14	1.400000000000000e+00
	9.630214851892160e-01
	2.975354673023974e-01
	2.977258258515644e-01
	5.000000000000000e+00
	1.400000000000000e+00
	-5.000000000000000e-05
	-4.921022497452586e-05

 15	1.500000000000000e+00
	9.630258992861100e-01
	2.975395128337082e-01
	2.977732186360633e-01
	5.000000000000000e+00
	1.500000000000000e+00
	-5.000000000000000e-05
	-4.921879842717067e-05

 16	1.600000000000000e+00
	9.630302981814982e-01
	2.975435444371766e-01
	2.978205188034694e-01
	5.000000000000000e+00
	1.600000000000000e+00
	-5.000000000000000e-05
	-4.922735412234638e-05

 17	1.700000000000000e+00
	9.630346819657370e-01
	2.975475621955693e-01
	2.978677267232143e-01
	5.000000000000000e+00
	1.700000000000000e+00
	-5.000000000000000e-05
	-4.923589213537468e-05

 18	1.800000000000000e+00
	9.630390507217597e-01
	2.975515661848515e-01
	2.979148427560880e-01
	5.000000000000000e+00
	1.800000000000000e+00
	-5.000000000000000e-05
	-4.924441253907928e-05

 19	1.900000000000001e+00
	9.630434045295901e-01
	2.975555564783185e-01
	2.979618672585706e-01
	5.000000000000000e+00
	1.900000000000001e+00
	-5.000000000000000e-05
	-4.925291540509384e-05

 20	2.000000000000000e+00
	9.630477434680855e-01
	2.975595331482031e-01
	2.980088005844904e-01
	5.000000000000000e+00
	2.000000000000000e+00
	-5.000000000000000e-05
	-4.926140080440673e-05

 21	2.100000000000001e+00
	9.630520676148578e-01
	2.975634962655905e-01
	2.980556430850003e-01
	5.000000000000000e+00
	2.100000000000001e+00
	-5.000000000000000e-05
	-4.926986880742342e-05

 22	2.200000000000001e+00
	9.630563770469662e-01
	2.975674459010645e-01
	2.981023951092208e-01
	5.000000000000000e+00
	2.200000000000001e+00
	-5.000000000000000e-05
	-4.927831948404286e-05

 23	2.300000000000001e+00
	9.630606718408483e-01
	2.975713821246372e-01
	2.981490570041875e-01
	5.000000000000000e+00
	2.300000000000001e+00
	-5.000000000000000e-05
	-4.928675290381358e-05

 24	2.400000000000001e+00
	9.630649520721417e-01
	2.975753050055887e-01
	2.981956291147126e-01
	5.000000000000000e+00
	2.400000000000001e+00
	-5.000000000000000e-05
	-4.929516913574290e-05

 25	2.500000000000001e+00
	9.630692178162809e-01
	2.975792146130131e-01
	2.982421117839310e-01
	5.000000000000000e+00
	2.500000000000001e+00
	-5.000000000000000e-05
	-4.930356824853973e-05

 26	2.600000000000001e+00
	9.630734691478187e-01
	2.975831110151979e-01
	2.982885053527059e-01
	5.000000000000000e+00
	2.600000000000001e+00
	-5.000000000000000e-05
	-4.931195031037870e-05

 27	2.700000000000001e+00
	9.630777061409871e-01
	2.975869942801341e-01
	2.983348101601300e-01
	5.000000000000000e+00
	2.700000000000001e+00
	-5.000000000000000e-05
	-4.932031538912914e-05

 28	2.800000000000001e+00
	9.630819288695508e-01
	2.975908644753929e-01
	2.983810265434277e-01
	5.000000000000000e+00
	2.800000000000001e+00
	-5.000000000000000e-05
	-4.932866355220241e-05

 29	2.900000000000001e+00
	9.630861374064161e-01
	2.975947216677442e-01
	2.984271548375919e-01
	5.000000000000000e+00
	2.900000000000001e+00
	-5.000000000000000e-05
	-4.933699486666290e-05

 30	3.000000000000001e+00
	9.630903318243405e-01
	2.975985659238377e-01
	2.984731953760408e-01
	5.000000000000000e+00
	3.000000000000001e+00
	-5.000000000000000e-05
	-4.934530939911707e-05

 31	3.100000000000001e+00
	9.630945121955555e-01
	2.976023973098335e-01
	2.985191484902974e-01
	5.000000000000000e+00
	3.100000000000001e+00
	-5.000000000000000e-05
	-4.935360721582442e-05

 32	3.200000000000002e+00
	9.630986785915764e-01
	2.976062158912371e-01
	2.985650145098115e-01
	5.000000000000000e+00
	3.200000000000002e+00
	-5.000000000000000e-05
	-4.936188838268360e-05

 33	3.300000000000002e+00
	9.631028310836161e-01
	2.976100217332748e-01
	2.986107937623625e-01
	5.000000000000000e+00
	3.300000000000002e+00
	-5.000000000000000e-05
	-4.937015296510065e-05

 34	3.400000000000002e+00
	9.631069697422410e-01
	2.976138149005859e-01
	2.986564865737374e-01
	5.000000000000000e+00
	3.400000000000002e+00
	-5.000000000000000e-05
	-4.937840102823872e-05

 35	3.500000000000002e+00
	9.631110946377246e-01
	2.976175954575330e-01
	2.987020932680770e-01
	5.000000000000000e+00
	3.500000000000002e+00
	-5.000000000000000e-05
	-4.938663263680992e-05

 36	3.600000000000002e+00
	9.631152058397373e-01
	2.976213634679395e-01
	2.987476141676014e-01
	5.000000000000000e+00
	3.600000000000002e+00
	-5.000000000000000e-05
	-4.939484785513087e-05

 37	3.700000000000002e+00
	9.631193034174730e-01
	2.976251189951811e-01
	2.987930495927252e-01
	5.000000000000000e+00
	3.700000000000002e+00
	-5.000000000000000e-05
	-4.940304674723368e-05

 38	3.800000000000002e+00
	9.631233874397904e-01
	2.976288621023338e-01
	2.988383998622060e-01
	5.000000000000000e+00
	3.800000000000002e+00
	-5.000000000000000e-05
	-4.941122937666473e-05

 39	3.900000000000002e+00
	9.631274579748644e-01
	2.976325928518411e-01
	2.988836652928322e-01
	5.000000000000000e+00
	3.900000000000002e+00
	-5.000000000000000e-05
	-4.941939580670674e-05

 40	4.000000000000002e+00
	9.631315150905015e-01
	2.976363113058108e-01
	2.989288461997263e-01
	5.000000000000000e+00
	4.000000000000002e+00
	-5.000000000000000e-05
	-4.942754610018446e-05

 41	4.100000000000001e+00
	9.631355588541599e-01
	2.976400175260359e-01
	2.989739428963579e-01
	5.000000000000000e+00
	4.100000000000001e+00
	-5.000000000000000e-05
	-4.943568031970060e-05

 42	4.200000000000001e+00
	9.631395893327520e-01
	2.976437115738070e-01
	2.990189556943862e-01
	5.000000000000000e+00
	4.200000000000001e+00
	-5.000000000000000e-05
	-4.944379852734435e-05

 43	4.300000000000001e+00
	9.631436065927336e-01
	2.976473935099962e-01
	2.990638849037506e-01
	5.000000000000000e+00
	4.300000000000001e+00
	-5.000000000000000e-05
	-4.945190078495516e-05

 44	4.400000000000000e+00
	9.631476107000715e-01
	2.976510633950276e-01
	2.991087308326353e-01
	5.000000000000000e+00
	4.400000000000000e+00
	-5.000000000000000e-05
	-4.945998715395611e-05

 45	4.500000000000000e+00
	9.631516017203797e-01
	2.976547212890023e-01
	2.991534937876238e-01
	5.000000000000000e+00
	4.500000000000000e+00
	-5.000000000000000e-05
	-4.946805769542335e-05

 46	4.600000000000000e+00
	9.631555797188160e-01
	2.976583672516047e-01
	2.991981740735937e-01
	5.000000000000000e+00
	4.600000000000000e+00
	-5.000000000000000e-05
	-4.947611247022485e-05

 47	4.699999999999999e+00
	9.631595447600700e-01
	2.976620013420911e-01
	2.992427719937309e-01
	5.000000000000000e+00
	4.699999999999999e+00
	-5.000000000000000e-05
	-4.948415153865960e-05

 48	4.799999999999999e+00
	9.631634969083518e-01
	2.976656236192735e-01
	2.992872878495164e-01
	5.000000000000000e+00
	4.799999999999999e+00
	-5.000000000000000e-05
	-4.949217496088781e-05

 49	4.899999999999999e+00
	9.631674362276261e-01
	2.976692341417475e-01
	2.993317219409553e-01
	5.000000000000000e+00
	4.899999999999999e+00
	-5.000000000000000e-05
	-4.950018279652845e-05

 50	4.999999999999998e+00
	9.631713627811763e-01
	2.976728329674789e-01
	2.993760745661861e-01
	5.000000000000000e+00
	4.999999999999998e+00
	-5.000000000000000e-05
	-4.950817510502010e-05

