Title: simple mos current mirror
Date: Fri Sep 15 11:38:17  2017
Plotname: DC transfer characteristic
Flags: real
No. Variables: 6
No. Points: 31
Variables:
	0	n2	voltage
	1	n1	voltage
	2	n_pos	voltage
	3	v-sweep	voltage
	4	i(v1)	current
	5	i(v2)	current
Values:
 0	0.000000000000000e+00
	1.104929322524890e+00
	3.000000000000000e+00
	0.000000000000000e+00
	-5.000000000000000e-05
	0.000000000000000e+00

 1	1.000000000000000e-01
	1.104929322492451e+00
	3.000000000000000e+00
	1.000000000000000e-01
	-5.000000000000000e-05
	-1.920998834669868e-05

 2	2.000000000000000e-01
	1.104929322492451e+00
	3.000000000000000e+00
	2.000000000000000e-01
	-5.000000000000000e-05
	-3.335870618112931e-05

 3	3.000000000000000e-01
	1.104929322492451e+00
	3.000000000000000e+00
	3.000000000000000e-01
	-5.000000000000000e-05
	-4.254444373388697e-05

 4	4.000000000000000e-01
	1.104929322492451e+00
	3.000000000000000e+00
	4.000000000000000e-01
	-5.000000000000000e-05
	-4.715077659517331e-05

 5	5.000000000000000e-01
	1.104929322492451e+00
	3.000000000000000e+00
	5.000000000000000e-01
	-5.000000000000000e-05
	-4.869592201976071e-05

 6	6.000000000000000e-01
	1.104929322492451e+00
	3.000000000000000e+00
	6.000000000000000e-01
	-5.000000000000000e-05
	-4.920971299487506e-05

 7	7.000000000000000e-01
	1.104929322492451e+00
	3.000000000000000e+00
	7.000000000000000e-01
	-5.000000000000000e-05
	-4.946963956390584e-05

 8	7.999999999999999e-01
	1.104929322492451e+00
	3.000000000000000e+00
	7.999999999999999e-01
	-5.000000000000000e-05
	-4.964408757019709e-05

 9	8.999999999999999e-01
	1.104929322492451e+00
	3.000000000000000e+00
	8.999999999999999e-01
	-5.000000000000000e-05
	-4.977959978277846e-05

 10	9.999999999999999e-01
	1.104929322492451e+00
	3.000000000000000e+00
	9.999999999999999e-01
	-5.000000000000000e-05
	-4.989388988856799e-05

 11	1.100000000000000e+00
	1.104929322492451e+00
	3.000000000000000e+00
	1.100000000000000e+00
	-5.000000000000000e-05
	-4.999524999134668e-05

 12	1.200000000000000e+00
	1.104929322492451e+00
	3.000000000000000e+00
	1.200000000000000e+00
	-5.000000000000000e-05
	-5.008811581112546e-05

 13	1.300000000000000e+00
	1.104929322492451e+00
	3.000000000000000e+00
	1.300000000000000e+00
	-5.000000000000000e-05
	-5.017508867306089e-05

 14	1.400000000000000e+00
	1.104929322492451e+00
	3.000000000000000e+00
	1.400000000000000e+00
	-5.000000000000000e-05
	-5.025780025326712e-05

 15	1.500000000000000e+00
	1.104929322492451e+00
	3.000000000000000e+00
	1.500000000000000e+00
	-5.000000000000000e-05
	-5.033732810405100e-05

 16	1.600000000000000e+00
	1.104929322492451e+00
	3.000000000000000e+00
	1.600000000000000e+00
	-5.000000000000000e-05
	-5.041441348661597e-05

 17	1.700000000000000e+00
	1.104929322492451e+00
	3.000000000000000e+00
	1.700000000000000e+00
	-5.000000000000000e-05
	-5.048958355520846e-05

 18	1.800000000000000e+00
	1.104929322492451e+00
	3.000000000000000e+00
	1.800000000000000e+00
	-5.000000000000000e-05
	-5.056322370422088e-05

 19	1.900000000000001e+00
	1.104929322492451e+00
	3.000000000000000e+00
	1.900000000000001e+00
	-5.000000000000000e-05
	-5.063562235217168e-05

 20	2.000000000000000e+00
	1.104929322492451e+00
	3.000000000000000e+00
	2.000000000000000e+00
	-5.000000000000000e-05
	-5.070699971385437e-05

 21	2.100000000000001e+00
	1.104929322492451e+00
	3.000000000000000e+00
	2.100000000000001e+00
	-5.000000000000000e-05
	-5.077752687933565e-05

 22	2.200000000000001e+00
	1.104929322492451e+00
	3.000000000000000e+00
	2.200000000000001e+00
	-5.000000000000000e-05
	-5.084733881493184e-05

 23	2.300000000000001e+00
	1.104929322492451e+00
	3.000000000000000e+00
	2.300000000000001e+00
	-5.000000000000000e-05
	-5.091654343545082e-05

 24	2.400000000000001e+00
	1.104929322492451e+00
	3.000000000000000e+00
	2.400000000000001e+00
	-5.000000000000000e-05
	-5.098522806867545e-05

 25	2.500000000000001e+00
	1.104929322492451e+00
	3.000000000000000e+00
	2.500000000000001e+00
	-5.000000000000000e-05
	-5.105346414794121e-05

 26	2.600000000000001e+00
	1.104929322492451e+00
	3.000000000000000e+00
	2.600000000000001e+00
	-5.000000000000000e-05
	-5.112131067544820e-05

 27	2.700000000000001e+00
	1.104929322492451e+00
	3.000000000000000e+00
	2.700000000000001e+00
	-5.000000000000000e-05
	-5.118881681674619e-05

 28	2.800000000000001e+00
	1.104929322492451e+00
	3.000000000000000e+00
	2.800000000000001e+00
	-5.000000000000000e-05
	-5.125602387075913e-05

 29	2.900000000000001e+00
	1.104929322492451e+00
	3.000000000000000e+00
	2.900000000000001e+00
	-5.000000000000000e-05
	-5.132296678411963e-05

 30	3.000000000000001e+00
	1.104929322492451e+00
	3.000000000000000e+00
	3.000000000000001e+00
	-5.000000000000000e-05
	-5.138967532833872e-05

