Title: lateral pnp current mirror
Date: Wed Sep 13 19:09:54  2017
Plotname: DC transfer characteristic
Flags: real
No. Variables: 6
No. Points: 51
Variables:
	0	n2	voltage
	1	n1	voltage
	2	n_pos	voltage
	3	v-sweep	voltage
	4	i(v1)	current
	5	i(v2)	current
Values:
 0	0.000000000000000e+00
	4.288386630257413e+00
	5.000000000000000e+00
	0.000000000000000e+00
	-1.041697243231651e-04
	5.328376166528072e-05

 1	1.000000000000000e-01
	4.288386948944830e+00
	5.000000000000000e+00
	1.000000000000000e-01
	-1.040512453566247e-04
	5.316529347420046e-05

 2	2.000000000000000e-01
	4.288387266573848e+00
	5.000000000000000e+00
	2.000000000000000e-01
	-1.039326208297636e-04
	5.304667978824924e-05

 3	3.000000000000000e-01
	4.288387584368629e+00
	5.000000000000000e+00
	3.000000000000000e-01
	-1.038139597579132e-04
	5.292802956289412e-05

 4	4.000000000000000e-01
	4.288387902494515e+00
	5.000000000000000e+00
	4.000000000000000e-01
	-1.036952256666598e-04
	5.280930632924551e-05

 5	5.000000000000000e-01
	4.288388220952073e+00
	5.000000000000000e+00
	5.000000000000000e-01
	-1.035764184647847e-04
	5.269050999622774e-05

 6	6.000000000000000e-01
	4.288388539741831e+00
	5.000000000000000e+00
	6.000000000000000e-01
	-1.034575380611663e-04
	5.257164047263061e-05

 7	7.000000000000000e-01
	4.288388858864368e+00
	5.000000000000000e+00
	7.000000000000000e-01
	-1.033385843642529e-04
	5.245269766701371e-05

 8	7.999999999999999e-01
	4.288389178320207e+00
	5.000000000000000e+00
	7.999999999999999e-01
	-1.032195572825897e-04
	5.233368148783849e-05

 9	8.999999999999999e-01
	4.288389498109932e+00
	5.000000000000000e+00
	8.999999999999999e-01
	-1.031004567242852e-04
	5.221459184331792e-05

 10	9.999999999999999e-01
	4.288389818234084e+00
	5.000000000000000e+00
	9.999999999999999e-01
	-1.029812825974752e-04
	5.209542864153594e-05

 11	1.100000000000000e+00
	4.288390138693231e+00
	5.000000000000000e+00
	1.100000000000000e+00
	-1.028620348099696e-04
	5.197619179038502e-05

 12	1.200000000000000e+00
	4.288390459487919e+00
	5.000000000000000e+00
	1.200000000000000e+00
	-1.027427132695435e-04
	5.185688119760910e-05

 13	1.300000000000000e+00
	4.288390780618722e+00
	5.000000000000000e+00
	1.300000000000000e+00
	-1.026233178836600e-04
	5.173749677074070e-05

 14	1.400000000000000e+00
	4.288391102086189e+00
	5.000000000000000e+00
	1.400000000000000e+00
	-1.025038485597332e-04
	5.161803841715728e-05

 15	1.500000000000000e+00
	4.288391423890884e+00
	5.000000000000000e+00
	1.500000000000000e+00
	-1.023843052049278e-04
	5.149850604407066e-05

 16	1.600000000000000e+00
	4.288391746033375e+00
	5.000000000000000e+00
	1.600000000000000e+00
	-1.022646877262279e-04
	5.137889955849186e-05

 17	1.700000000000000e+00
	4.288392068514232e+00
	5.000000000000000e+00
	1.700000000000000e+00
	-1.021449960304927e-04
	5.125921886725863e-05

 18	1.800000000000000e+00
	4.288392391334019e+00
	5.000000000000000e+00
	1.800000000000000e+00
	-1.020252300243038e-04
	5.113946387704828e-05

 19	1.900000000000001e+00
	4.288392714493303e+00
	5.000000000000000e+00
	1.900000000000001e+00
	-1.019053896141875e-04
	5.101963449435009e-05

 20	2.000000000000000e+00
	4.288393037992644e+00
	5.000000000000000e+00
	2.000000000000000e+00
	-1.017854747064548e-04
	5.089973062548728e-05

 21	2.100000000000001e+00
	4.288393361832633e+00
	5.000000000000000e+00
	2.100000000000001e+00
	-1.016654852071530e-04
	5.077975217655751e-05

 22	2.200000000000001e+00
	4.288393686013814e+00
	5.000000000000000e+00
	2.200000000000001e+00
	-1.015454210223643e-04
	5.065969905356871e-05

 23	2.300000000000001e+00
	4.288394010536785e+00
	5.000000000000000e+00
	2.300000000000001e+00
	-1.014252820576572e-04
	5.053957116226511e-05

 24	2.400000000000001e+00
	4.288394335402123e+00
	5.000000000000000e+00
	2.400000000000001e+00
	-1.013050682186767e-04
	5.041936840822440e-05

 25	2.500000000000001e+00
	4.288394660610380e+00
	5.000000000000000e+00
	2.500000000000001e+00
	-1.011847794108803e-04
	5.029909069690112e-05

 26	2.600000000000001e+00
	4.288394986162154e+00
	5.000000000000000e+00
	2.600000000000001e+00
	-1.010644155394064e-04
	5.017873793349958e-05

 27	2.700000000000001e+00
	4.288395312058018e+00
	5.000000000000000e+00
	2.700000000000001e+00
	-1.009439765092685e-04
	5.005831002307748e-05

 28	2.800000000000001e+00
	4.288395638298550e+00
	5.000000000000000e+00
	2.800000000000001e+00
	-1.008234622254384e-04
	4.993780687051084e-05

 29	2.900000000000001e+00
	4.288395964884330e+00
	5.000000000000000e+00
	2.900000000000001e+00
	-1.007028725924508e-04
	4.981722838048744e-05

 30	3.000000000000001e+00
	4.288396291815951e+00
	5.000000000000000e+00
	3.000000000000001e+00
	-1.005822075148960e-04
	4.969657445750035e-05

 31	3.100000000000001e+00
	4.288396619093994e+00
	5.000000000000000e+00
	3.100000000000001e+00
	-1.004614668969755e-04
	4.957584500587392e-05

 32	3.200000000000002e+00
	4.288396946719043e+00
	5.000000000000000e+00
	3.200000000000002e+00
	-1.003406506428564e-04
	4.945503992974214e-05

 33	3.300000000000002e+00
	4.288397274691691e+00
	5.000000000000000e+00
	3.300000000000002e+00
	-1.002197586564835e-04
	4.933415913305293e-05

 34	3.400000000000002e+00
	4.288397603012549e+00
	5.000000000000000e+00
	3.400000000000002e+00
	-1.000987908415310e-04
	4.921320251953087e-05

 35	3.500000000000002e+00
	4.288397931682207e+00
	5.000000000000000e+00
	3.500000000000002e+00
	-9.997774710152063e-05
	4.909216999272794e-05

 36	3.600000000000002e+00
	4.288398260701307e+00
	5.000000000000000e+00
	3.600000000000002e+00
	-9.985662733977274e-05
	4.897106145595499e-05

 37	3.700000000000002e+00
	4.288398590070515e+00
	5.000000000000000e+00
	3.700000000000002e+00
	-9.973543145926078e-05
	4.884987681221236e-05

 38	3.800000000000002e+00
	4.288398919790658e+00
	5.000000000000000e+00
	3.800000000000002e+00
	-9.961415936241697e-05
	4.872861596398777e-05

 39	3.900000000000002e+00
	4.288399249863050e+00
	5.000000000000000e+00
	3.900000000000002e+00
	-9.949281095034124e-05
	4.860727881237595e-05

 40	4.000000000000002e+00
	4.288399580291435e+00
	5.000000000000000e+00
	4.000000000000002e+00
	-9.937138611781915e-05
	4.848586525237931e-05

 41	4.100000000000001e+00
	4.288399911100939e+00
	5.000000000000000e+00
	4.100000000000001e+00
	-9.924988470710189e-05
	4.836437512692904e-05

 42	4.200000000000001e+00
	4.288400242491173e+00
	5.000000000000000e+00
	4.200000000000001e+00
	-9.912830613129087e-05
	4.824280785603163e-05

 43	4.300000000000001e+00
	4.288400575784585e+00
	5.000000000000000e+00
	4.300000000000001e+00
	-9.900664704830253e-05
	4.812116013509695e-05

 44	4.400000000000000e+00
	4.288400920128146e+00
	5.000000000000000e+00
	4.400000000000000e+00
	-9.888488492028336e-05
	4.799940938753165e-05

 45	4.500000000000000e+00
	4.288401338897822e+00
	5.000000000000000e+00
	4.500000000000000e+00
	-9.876286361665265e-05
	4.787738487846069e-05

 46	4.600000000000000e+00
	4.288402282673879e+00
	5.000000000000000e+00
	4.600000000000000e+00
	-9.863944091294957e-05
	4.775315891049261e-05

 47	4.699999999999999e+00
	4.288407497264656e+00
	5.000000000000000e+00
	4.699999999999999e+00
	-9.850356755028433e-05
	4.757756999643030e-05

 48	4.799999999999999e+00
	4.288472739099761e+00
	5.000000000000000e+00
	4.799999999999999e+00
	-9.813004076488635e-05
	4.531982917060570e-05

 49	4.899999999999999e+00
	4.289981547515553e+00
	5.000000000000000e+00
	4.899999999999999e+00
	-9.095455010142695e-05
	-2.720212769265727e-05

 50	4.999999999999998e+00
	4.300364955621147e+00
	5.000000000000000e+00
	4.999999999999998e+00
	-4.223636997227609e-05
	-4.707695505072077e-04

