Title: widely used mos current mirrors simulation testbench (dc)
Date: Wed Oct 11 13:57:11  2017
Plotname: DC transfer characteristic
Flags: real
No. Variables: 8
No. Points: 31
Variables:
	0	n2	voltage
	1	n1	voltage
	2	n3	voltage
	3	n4	voltage
	4	n_pos	voltage
	5	v-sweep	voltage
	6	i(v1)	current
	7	i(v2)	current
Values:
 0	0.000000000000000e+00
	1.171056559479250e+00
	4.107771807060632e-01
	2.376470515310385e-17
	3.000000000000000e+00
	0.000000000000000e+00
	-5.000000000000000e-05
	-1.861892674502555e-21

 1	1.000000000000000e-01
	1.171056559479251e+00
	4.107771807060641e-01
	9.560684941263251e-02
	3.000000000000000e+00
	1.000000000000000e-01
	-5.000000000000000e-05
	-1.773287239214264e-05

 2	2.000000000000000e-01
	1.171056559479249e+00
	4.107771807060622e-01
	1.895523587613786e-01
	3.000000000000000e+00
	2.000000000000000e-01
	-5.000000000000000e-05
	-3.152192434708700e-05

 3	3.000000000000000e-01
	1.171056559479250e+00
	4.107771807060623e-01
	2.793897987823850e-01
	3.000000000000000e+00
	3.000000000000000e-01
	-5.000000000000000e-05
	-4.136209822293757e-05

 4	4.000000000000000e-01
	1.171056559479250e+00
	4.107771807060634e-01
	3.572492882552662e-01
	3.000000000000000e+00
	4.000000000000000e-01
	-5.000000000000000e-05
	-4.727826732634269e-05

 5	5.000000000000000e-01
	1.171056559479250e+00
	4.107771807060636e-01
	4.016203072633628e-01
	3.000000000000000e+00
	5.000000000000000e-01
	-5.000000000000000e-05
	-4.960844382713019e-05

 6	6.000000000000000e-01
	1.171056559479251e+00
	4.107771807060641e-01
	4.086107753216161e-01
	3.000000000000000e+00
	6.000000000000000e-01
	-5.000000000000000e-05
	-4.991015558901516e-05

 7	7.000000000000000e-01
	1.171056559479251e+00
	4.107771807060643e-01
	4.091599623080025e-01
	3.000000000000000e+00
	7.000000000000000e-01
	-5.000000000000000e-05
	-4.994014786312539e-05

 8	7.999999999999999e-01
	1.171056559479250e+00
	4.107771807060634e-01
	4.097943807223116e-01
	3.000000000000000e+00
	7.999999999999999e-01
	-5.000000000000000e-05
	-4.995938288604776e-05

 9	8.999999999999999e-01
	1.171056559479251e+00
	4.107771807060638e-01
	4.100907744087363e-01
	3.000000000000000e+00
	8.999999999999999e-01
	-5.000000000000000e-05
	-4.997168670045258e-05

 10	9.999999999999999e-01
	1.171056559479250e+00
	4.107771807060638e-01
	4.103565777076639e-01
	3.000000000000000e+00
	9.999999999999999e-01
	-5.000000000000000e-05
	-4.998265814814006e-05

 11	1.100000000000000e+00
	1.171056559479250e+00
	4.107771807060636e-01
	4.106058661993275e-01
	3.000000000000000e+00
	1.100000000000000e+00
	-5.000000000000000e-05
	-4.999294395948003e-05

 12	1.200000000000000e+00
	1.171056559479250e+00
	4.107771807060635e-01
	4.108459490029228e-01
	3.000000000000000e+00
	1.200000000000000e+00
	-5.000000000000000e-05
	-5.000282956485312e-05

 13	1.300000000000000e+00
	1.171056559479251e+00
	4.107771807060640e-01
	4.110800714934852e-01
	3.000000000000000e+00
	1.300000000000000e+00
	-5.000000000000000e-05
	-5.001245045891566e-05

 14	1.400000000000000e+00
	1.171056559479250e+00
	4.107771807060638e-01
	4.113100234585664e-01
	3.000000000000000e+00
	1.400000000000000e+00
	-5.000000000000000e-05
	-5.002188142397089e-05

 15	1.500000000000000e+00
	1.171056559479250e+00
	4.107771807060630e-01
	4.115368776580041e-01
	3.000000000000000e+00
	1.500000000000000e+00
	-5.000000000000000e-05
	-5.003116733753480e-05

 16	1.600000000000000e+00
	1.171056559479251e+00
	4.107771807060638e-01
	4.117613184805376e-01
	3.000000000000000e+00
	1.600000000000000e+00
	-5.000000000000000e-05
	-5.004033687613620e-05

 17	1.700000000000000e+00
	1.171056559479251e+00
	4.107771807060640e-01
	4.119838042207213e-01
	3.000000000000000e+00
	1.700000000000000e+00
	-5.000000000000000e-05
	-5.004940928484439e-05

 18	1.800000000000000e+00
	1.171056559479250e+00
	4.107771807060637e-01
	4.122046539434477e-01
	3.000000000000000e+00
	1.800000000000000e+00
	-5.000000000000000e-05
	-5.005839800085711e-05

 19	1.900000000000001e+00
	1.171056559479250e+00
	4.107771807060636e-01
	4.124240970111538e-01
	3.000000000000000e+00
	1.900000000000001e+00
	-5.000000000000000e-05
	-5.006731271942603e-05

 20	2.000000000000000e+00
	1.171056559479251e+00
	4.107771807060639e-01
	4.126423028017269e-01
	3.000000000000000e+00
	2.000000000000000e+00
	-5.000000000000000e-05
	-5.007616063339284e-05

 21	2.100000000000001e+00
	1.171056559479250e+00
	4.107771807060633e-01
	4.128593993091035e-01
	3.000000000000000e+00
	2.100000000000001e+00
	-5.000000000000000e-05
	-5.008494720897466e-05

 22	2.200000000000001e+00
	1.171056559479251e+00
	4.107771807060634e-01
	4.130754852066956e-01
	3.000000000000000e+00
	2.200000000000001e+00
	-5.000000000000000e-05
	-5.009367668886702e-05

 23	2.300000000000001e+00
	1.171056559479251e+00
	4.107771807060642e-01
	4.132906379123006e-01
	3.000000000000000e+00
	2.300000000000001e+00
	-5.000000000000000e-05
	-5.010235242857439e-05

 24	2.400000000000001e+00
	1.171056559479251e+00
	4.107771807060633e-01
	4.135049191233172e-01
	3.000000000000000e+00
	2.400000000000001e+00
	-5.000000000000000e-05
	-5.011097712723429e-05

 25	2.500000000000001e+00
	1.171056559479250e+00
	4.107771807060633e-01
	4.137183787039383e-01
	3.000000000000000e+00
	2.500000000000001e+00
	-5.000000000000000e-05
	-5.011955298971256e-05

 26	2.600000000000001e+00
	1.171056559479251e+00
	4.107771807060638e-01
	4.139310574708542e-01
	3.000000000000000e+00
	2.600000000000001e+00
	-5.000000000000000e-05
	-5.012808184276139e-05

 27	2.700000000000001e+00
	1.171056559479250e+00
	4.107771807060638e-01
	4.141429892258113e-01
	3.000000000000000e+00
	2.700000000000001e+00
	-5.000000000000000e-05
	-5.013656521977170e-05

 28	2.800000000000001e+00
	1.171056559479250e+00
	4.107771807060632e-01
	4.143542022627695e-01
	3.000000000000000e+00
	2.800000000000001e+00
	-5.000000000000000e-05
	-5.014500442361699e-05

 29	2.900000000000001e+00
	1.171056559479251e+00
	4.107771807060636e-01
	4.145647205017868e-01
	3.000000000000000e+00
	2.900000000000001e+00
	-5.000000000000000e-05
	-5.015340057393366e-05

 30	3.000000000000001e+00
	1.171056559479250e+00
	4.107771807060632e-01
	4.147745643533580e-01
	3.000000000000000e+00
	3.000000000000001e+00
	-5.000000000000000e-05
	-5.016175464315874e-05

