Title: widely used mos current mirrors simulation testbench (dc)
Date: Thu Oct 12 14:09:39  2017
Plotname: DC transfer characteristic
Flags: real
No. Variables: 9
No. Points: 31
Variables:
	0	n2	voltage
	1	n1	voltage
	2	n3	voltage
	3	n4	voltage
	4	n5	voltage
	5	n_pos	voltage
	6	v-sweep	voltage
	7	i(v1)	current
	8	i(v2)	current
Values:
 0	0.000000000000000e+00
	9.554769108788919e-01
	1.205476910878892e+00
	4.371279145848899e-01
	9.935078370273736e-18
	3.000000000000000e+00
	0.000000000000000e+00
	-5.000000000000000e-05
	-1.361644149964693e-20

 1	1.000000000000000e-01
	9.554769108788914e-01
	1.205476910878891e+00
	4.371279145848892e-01
	9.474055073839475e-02
	3.000000000000000e+00
	1.000000000000000e-01
	-5.000000000000000e-05
	-2.264693810703822e-05

 2	2.000000000000000e-01
	9.554769108788919e-01
	1.205476910878892e+00
	4.371279145848894e-01
	1.884974312362142e-01
	3.000000000000000e+00
	2.000000000000000e-01
	-5.000000000000000e-05
	-3.794947023111247e-05

 3	3.000000000000000e-01
	9.554769108788915e-01
	1.205476910878891e+00
	4.371279145848894e-01
	2.797792066589231e-01
	3.000000000000000e+00
	3.000000000000000e-01
	-5.000000000000000e-05
	-4.628828788004162e-05

 4	4.000000000000000e-01
	9.554769108788915e-01
	1.205476910878891e+00
	4.371279145848895e-01
	3.629848737924384e-01
	3.000000000000000e+00
	4.000000000000000e-01
	-5.000000000000000e-05
	-4.924482095121271e-05

 5	5.000000000000000e-01
	9.554769108788911e-01
	1.205476910878891e+00
	4.371279145848891e-01
	4.206388480492957e-01
	3.000000000000000e+00
	5.000000000000000e-01
	-5.000000000000000e-05
	-4.989757687527327e-05

 6	6.000000000000000e-01
	9.554769108788912e-01
	1.205476910878891e+00
	4.371279145848890e-01
	4.349197058027892e-01
	3.000000000000000e+00
	6.000000000000000e-01
	-5.000000000000000e-05
	-4.998761730071752e-05

 7	7.000000000000000e-01
	9.554769108788911e-01
	1.205476910878891e+00
	4.371279145848891e-01
	4.361834700914319e-01
	3.000000000000000e+00
	7.000000000000000e-01
	-5.000000000000000e-05
	-4.999474982939512e-05

 8	7.999999999999999e-01
	9.554769108788912e-01
	1.205476910878891e+00
	4.371279145848890e-01
	4.366391425827015e-01
	3.000000000000000e+00
	7.999999999999999e-01
	-5.000000000000000e-05
	-4.999728686571768e-05

 9	8.999999999999999e-01
	9.554769108788910e-01
	1.205476910878891e+00
	4.371279145848891e-01
	4.369677708125762e-01
	3.000000000000000e+00
	8.999999999999999e-01
	-5.000000000000000e-05
	-4.999910559605339e-05

 10	9.999999999999999e-01
	9.554769108788911e-01
	1.205476910878891e+00
	4.371279145848890e-01
	4.372505099181011e-01
	3.000000000000000e+00
	9.999999999999999e-01
	-5.000000000000000e-05
	-5.000068393669962e-05

 11	1.100000000000000e+00
	9.554769108788912e-01
	1.205476910878891e+00
	4.371279145848892e-01
	4.375135912485687e-01
	3.000000000000000e+00
	1.100000000000000e+00
	-5.000000000000000e-05
	-5.000214757785938e-05

 12	1.200000000000000e+00
	9.554769108788910e-01
	1.205476910878891e+00
	4.371279145848892e-01
	4.377656761946075e-01
	3.000000000000000e+00
	1.200000000000000e+00
	-5.000000000000000e-05
	-5.000354523915956e-05

 13	1.300000000000000e+00
	9.554769108788912e-01
	1.205476910878891e+00
	4.371279145848891e-01
	4.380108176428099e-01
	3.000000000000000e+00
	1.300000000000000e+00
	-5.000000000000000e-05
	-5.000489987453782e-05

 14	1.400000000000000e+00
	9.554769108788910e-01
	1.205476910878891e+00
	4.371279145848891e-01
	4.382511867756992e-01
	3.000000000000000e+00
	1.400000000000000e+00
	-5.000000000000000e-05
	-5.000622381731766e-05

 15	1.500000000000000e+00
	9.554769108788911e-01
	1.205476910878891e+00
	4.371279145848891e-01
	4.384880590530028e-01
	3.000000000000000e+00
	1.500000000000000e+00
	-5.000000000000000e-05
	-5.000752433129076e-05

 16	1.600000000000000e+00
	9.554769108788912e-01
	1.205476910878891e+00
	4.371279145848892e-01
	4.387222358367651e-01
	3.000000000000000e+00
	1.600000000000000e+00
	-5.000000000000000e-05
	-5.000880599621024e-05

 17	1.700000000000000e+00
	9.554769108788912e-01
	1.205476910878891e+00
	4.371279145848893e-01
	4.389542473372869e-01
	3.000000000000000e+00
	1.700000000000000e+00
	-5.000000000000000e-05
	-5.001007185662456e-05

 18	1.800000000000000e+00
	9.554769108788914e-01
	1.205476910878891e+00
	4.371279145848893e-01
	4.391844591115263e-01
	3.000000000000000e+00
	1.800000000000000e+00
	-5.000000000000000e-05
	-5.001132402476230e-05

 19	1.900000000000001e+00
	9.554769108788917e-01
	1.205476910878892e+00
	4.371279145848898e-01
	4.394131318341007e-01
	3.000000000000000e+00
	1.900000000000001e+00
	-5.000000000000000e-05
	-5.001256401886503e-05

 20	2.000000000000000e+00
	9.554769108788910e-01
	1.205476910878891e+00
	4.371279145848884e-01
	4.396404567029460e-01
	3.000000000000000e+00
	2.000000000000000e+00
	-5.000000000000000e-05
	-5.001379296357990e-05

 21	2.100000000000001e+00
	9.554769108788917e-01
	1.205476910878892e+00
	4.371279145848892e-01
	4.398665773635868e-01
	3.000000000000000e+00
	2.100000000000001e+00
	-5.000000000000000e-05
	-5.001501171403842e-05

 22	2.200000000000001e+00
	9.554769108788912e-01
	1.205476910878891e+00
	4.371279145848886e-01
	4.400916039996191e-01
	3.000000000000000e+00
	2.200000000000001e+00
	-5.000000000000000e-05
	-5.001622093558976e-05

 23	2.300000000000001e+00
	9.554769108788916e-01
	1.205476910878891e+00
	4.371279145848891e-01
	4.403156226797024e-01
	3.000000000000000e+00
	2.300000000000001e+00
	-5.000000000000000e-05
	-5.001742115669455e-05

 24	2.400000000000001e+00
	9.554769108788908e-01
	1.205476910878891e+00
	4.371279145848891e-01
	4.405387017294309e-01
	3.000000000000000e+00
	2.400000000000001e+00
	-5.000000000000000e-05
	-5.001861280497591e-05

 25	2.500000000000001e+00
	9.554769108788908e-01
	1.205476910878891e+00
	4.371279145848889e-01
	4.407608961796150e-01
	3.000000000000000e+00
	2.500000000000001e+00
	-5.000000000000000e-05
	-5.001979623239230e-05

 26	2.600000000000001e+00
	9.554769108788911e-01
	1.205476910878891e+00
	4.371279145848891e-01
	4.409822509373739e-01
	3.000000000000000e+00
	2.600000000000001e+00
	-5.000000000000000e-05
	-5.002097173317614e-05

 27	2.700000000000001e+00
	9.554769108788912e-01
	1.205476910878891e+00
	4.371279145848891e-01
	4.412028030890953e-01
	3.000000000000000e+00
	2.700000000000001e+00
	-5.000000000000000e-05
	-5.002213955686936e-05

 28	2.800000000000001e+00
	9.554769108788919e-01
	1.205476910878892e+00
	4.371279145848895e-01
	4.414225836009355e-01
	3.000000000000000e+00
	2.800000000000001e+00
	-5.000000000000000e-05
	-5.002329991794438e-05

 29	2.900000000000001e+00
	9.554769108788916e-01
	1.205476910878892e+00
	4.371279145848890e-01
	4.416416185933157e-01
	3.000000000000000e+00
	2.900000000000001e+00
	-5.000000000000000e-05
	-5.002445300301820e-05

 30	3.000000000000001e+00
	9.554769108788919e-01
	1.205476910878892e+00
	4.371279145848894e-01
	4.418599303091298e-01
	3.000000000000000e+00
	3.000000000000001e+00
	-5.000000000000000e-05
	-5.002559897633293e-05

