Title: widely used mos current mirrors simulation testbench (dc)
Date: Wed Oct 11 13:52:42  2017
Plotname: DC transfer characteristic
Flags: real
No. Variables: 9
No. Points: 31
Variables:
	0	n2	voltage
	1	n1	voltage
	2	n3	voltage
	3	n4	voltage
	4	n5	voltage
	5	n_pos	voltage
	6	v-sweep	voltage
	7	i(v1)	current
	8	i(v2)	current
Values:
 0	0.000000000000000e+00
	1.169213508461610e+00
	1.178570920920874e+00
	-6.237131094237775e-17
	4.166445429830216e-01
	3.000000000000000e+00
	0.000000000000000e+00
	-9.999999999999999e-05
	1.259750425826626e-20

 1	1.000000000000000e-01
	1.169213508461611e+00
	1.178570920920874e+00
	9.567912908090077e-02
	4.166445429830228e-01
	3.000000000000000e+00
	1.000000000000000e-01
	-9.999999999999999e-05
	-1.769036041287381e-05

 2	2.000000000000000e-01
	1.169213508461612e+00
	1.178570920920874e+00
	1.897789863594395e-01
	4.166445429830227e-01
	3.000000000000000e+00
	2.000000000000000e-01
	-9.999999999999999e-05
	-3.144241045721999e-05

 3	3.000000000000000e-01
	1.169213508461611e+00
	1.178570920920873e+00
	2.800199641198505e-01
	4.166445429830237e-01
	3.000000000000000e+00
	3.000000000000000e-01
	-9.999999999999999e-05
	-4.125912498474421e-05

 4	4.000000000000000e-01
	1.169213508461610e+00
	1.178570920920874e+00
	3.590813417534172e-01
	4.166445429830243e-01
	3.000000000000000e+00
	4.000000000000000e-01
	-9.999999999999999e-05
	-4.718427066681310e-05

 5	5.000000000000000e-01
	1.169213508461611e+00
	1.178570920920873e+00
	4.058863324274822e-01
	4.166445429830238e-01
	3.000000000000000e+00
	5.000000000000000e-01
	-9.999999999999999e-05
	-4.957449874506086e-05

 6	6.000000000000000e-01
	1.169213508461611e+00
	1.178570920920874e+00
	4.143951402790493e-01
	4.166445429830242e-01
	3.000000000000000e+00
	6.000000000000000e-01
	-9.999999999999999e-05
	-4.991241758025753e-05

 7	7.000000000000000e-01
	1.169213508461611e+00
	1.178570920920874e+00
	4.148749564445134e-01
	4.166445429830227e-01
	3.000000000000000e+00
	7.000000000000000e-01
	-9.999999999999999e-05
	-4.994196575743292e-05

 8	7.999999999999999e-01
	1.169213508461610e+00
	1.178570920920874e+00
	4.156574676466434e-01
	4.166445429830239e-01
	3.000000000000000e+00
	7.999999999999999e-01
	-9.999999999999999e-05
	-4.996172094443090e-05

 9	8.999999999999999e-01
	1.169213508461611e+00
	1.178570920920873e+00
	4.159574345550948e-01
	4.166445429830228e-01
	3.000000000000000e+00
	8.999999999999999e-01
	-9.999999999999999e-05
	-4.997341772355527e-05

 10	9.999999999999999e-01
	1.169213508461611e+00
	1.178570920920874e+00
	4.162260632095793e-01
	4.166445429830239e-01
	3.000000000000000e+00
	9.999999999999999e-01
	-9.999999999999999e-05
	-4.998380535181873e-05

 11	1.100000000000000e+00
	1.169213508461611e+00
	1.178570920920874e+00
	4.164768041303765e-01
	4.166445429830232e-01
	3.000000000000000e+00
	1.100000000000000e+00
	-9.999999999999999e-05
	-4.999351587106279e-05

 12	1.200000000000000e+00
	1.169213508461611e+00
	1.178570920920874e+00
	4.167180425764664e-01
	4.166445429830242e-01
	3.000000000000000e+00
	1.200000000000000e+00
	-9.999999999999999e-05
	-5.000283822559630e-05

 13	1.300000000000000e+00
	1.169213508461611e+00
	1.178570920920873e+00
	4.169531607977001e-01
	4.166445429830229e-01
	3.000000000000000e+00
	1.300000000000000e+00
	-9.999999999999999e-05
	-5.001190502471818e-05

 14	1.400000000000000e+00
	1.169213508461611e+00
	1.178570920920874e+00
	4.171840137334167e-01
	4.166445429830240e-01
	3.000000000000000e+00
	1.400000000000000e+00
	-9.999999999999999e-05
	-5.002078903960732e-05

 15	1.500000000000000e+00
	1.169213508461611e+00
	1.178570920920874e+00
	4.174117083650603e-01
	4.166445429830229e-01
	3.000000000000000e+00
	1.500000000000000e+00
	-9.999999999999999e-05
	-5.002953375601280e-05

 16	1.600000000000000e+00
	1.169213508461610e+00
	1.178570920920874e+00
	4.176369486218071e-01
	4.166445429830239e-01
	3.000000000000000e+00
	1.600000000000000e+00
	-9.999999999999999e-05
	-5.003816687261818e-05

 17	1.700000000000000e+00
	1.169213508461610e+00
	1.178570920920873e+00
	4.178602046732804e-01
	4.166445429830227e-01
	3.000000000000000e+00
	1.700000000000000e+00
	-9.999999999999999e-05
	-5.004670693212199e-05

 18	1.800000000000000e+00
	1.169213508461610e+00
	1.178570920920874e+00
	4.180818031681599e-01
	4.166445429830238e-01
	3.000000000000000e+00
	1.800000000000000e+00
	-9.999999999999999e-05
	-5.005516685579488e-05

 19	1.900000000000001e+00
	1.169213508461610e+00
	1.178570920920874e+00
	4.183019785123499e-01
	4.166445429830229e-01
	3.000000000000000e+00
	1.900000000000001e+00
	-9.999999999999999e-05
	-5.006355595187637e-05

 20	2.000000000000000e+00
	1.169213508461612e+00
	1.178570920920874e+00
	4.185209035529465e-01
	4.166445429830242e-01
	3.000000000000000e+00
	2.000000000000000e+00
	-9.999999999999999e-05
	-5.007188111727696e-05

 21	2.100000000000001e+00
	1.169213508461611e+00
	1.178570920920873e+00
	4.187387087394576e-01
	4.166445429830229e-01
	3.000000000000000e+00
	2.100000000000001e+00
	-9.999999999999999e-05
	-5.008014758795589e-05

 22	2.200000000000001e+00
	1.169213508461611e+00
	1.178570920920874e+00
	4.189554945266419e-01
	4.166445429830238e-01
	3.000000000000000e+00
	2.200000000000001e+00
	-9.999999999999999e-05
	-5.008835942460282e-05

 23	2.300000000000001e+00
	1.169213508461612e+00
	1.178570920920874e+00
	4.191713396524613e-01
	4.166445429830227e-01
	3.000000000000000e+00
	2.300000000000001e+00
	-9.999999999999999e-05
	-5.009651983677417e-05

 24	2.400000000000001e+00
	1.169213508461610e+00
	1.178570920920874e+00
	4.193863068112573e-01
	4.166445429830239e-01
	3.000000000000000e+00
	2.400000000000001e+00
	-9.999999999999999e-05
	-5.010463140502617e-05

 25	2.500000000000001e+00
	1.169213508461610e+00
	1.178570920920873e+00
	4.196004466327496e-01
	4.166445429830229e-01
	3.000000000000000e+00
	2.500000000000001e+00
	-9.999999999999999e-05
	-5.011269623670809e-05

 26	2.600000000000001e+00
	1.169213508461611e+00
	1.178570920920874e+00
	4.198138005302876e-01
	4.166445429830238e-01
	3.000000000000000e+00
	2.600000000000001e+00
	-9.999999999999999e-05
	-5.012071607747549e-05

 27	2.700000000000001e+00
	1.169213508461610e+00
	1.178570920920874e+00
	4.200264027769802e-01
	4.166445429830228e-01
	3.000000000000000e+00
	2.700000000000001e+00
	-9.999999999999999e-05
	-5.012869239257430e-05

 28	2.800000000000001e+00
	1.169213508461611e+00
	1.178570920920874e+00
	4.202382820437388e-01
	4.166445429830239e-01
	3.000000000000000e+00
	2.800000000000001e+00
	-9.999999999999999e-05
	-5.013662642705768e-05

 29	2.900000000000001e+00
	1.169213508461611e+00
	1.178570920920873e+00
	4.204494625554692e-01
	4.166445429830226e-01
	3.000000000000000e+00
	2.900000000000001e+00
	-9.999999999999999e-05
	-5.014451925104896e-05

 30	3.000000000000001e+00
	1.169213508461611e+00
	1.178570920920874e+00
	4.206599649717619e-01
	4.166445429830238e-01
	3.000000000000000e+00
	3.000000000000001e+00
	-9.999999999999999e-05
	-5.015237179422429e-05

