Title: mos current mirror with cascode stage simulation testbench (dc)
Date: Sat Oct  7 11:59:57  2017
Plotname: DC transfer characteristic
Flags: real
No. Variables: 8
No. Points: 31
Variables:
	0	n2	voltage
	1	n1	voltage
	2	n3	voltage
	3	n4	voltage
	4	n_pos	voltage
	5	v-sweep	voltage
	6	i(v1)	current
	7	i(v2)	current
Values:
 0	0.000000000000000e+00
	8.592641204676055e-01
	1.359264120467605e+00
	6.764592990169469e-18
	3.000000000000000e+00
	0.000000000000000e+00
	-5.000000000000000e-05
	-2.235726153160612e-21

 1	1.000000000000000e-01
	8.592641204676055e-01
	1.359264120467605e+00
	8.987945497320243e-02
	3.000000000000000e+00
	1.000000000000000e-01
	-5.000000000000000e-05
	-2.589804975000534e-05

 2	2.000000000000000e-01
	8.592641204676053e-01
	1.359264120467605e+00
	1.815386204937578e-01
	3.000000000000000e+00
	2.000000000000000e-01
	-5.000000000000000e-05
	-4.154758956397061e-05

 3	3.000000000000000e-01
	8.592641204676054e-01
	1.359264120467605e+00
	2.750472689153957e-01
	3.000000000000000e+00
	3.000000000000000e-01
	-5.000000000000000e-05
	-4.772433490292477e-05

 4	4.000000000000000e-01
	8.592641204676053e-01
	1.359264120467605e+00
	3.682262431086639e-01
	3.000000000000000e+00
	4.000000000000000e-01
	-5.000000000000000e-05
	-4.903165399031793e-05

 5	5.000000000000000e-01
	8.592641204676055e-01
	1.359264120467605e+00
	4.569396436690221e-01
	3.000000000000000e+00
	5.000000000000000e-01
	-5.000000000000000e-05
	-4.938695918667248e-05

 6	6.000000000000000e-01
	8.592641204676055e-01
	1.359264120467605e+00
	5.338351863632081e-01
	3.000000000000000e+00
	6.000000000000000e-01
	-5.000000000000000e-05
	-4.955791077287377e-05

 7	7.000000000000000e-01
	8.592641204676055e-01
	1.359264120467605e+00
	5.832229171428973e-01
	3.000000000000000e+00
	7.000000000000000e-01
	-5.000000000000000e-05
	-4.964269922466094e-05

 8	7.999999999999999e-01
	8.592641204676055e-01
	1.359264120467605e+00
	5.967572732566676e-01
	3.000000000000000e+00
	7.999999999999999e-01
	-5.000000000000000e-05
	-4.966411509676701e-05

 9	8.999999999999999e-01
	8.592641204676053e-01
	1.359264120467605e+00
	6.007616587442974e-01
	3.000000000000000e+00
	8.999999999999999e-01
	-5.000000000000000e-05
	-4.967039472030075e-05

 10	9.999999999999999e-01
	8.592641204676054e-01
	1.359264120467605e+00
	6.039011314645616e-01
	3.000000000000000e+00
	9.999999999999999e-01
	-5.000000000000000e-05
	-4.967505724195673e-05

 11	1.100000000000000e+00
	8.592641204676053e-01
	1.359264120467605e+00
	6.062511433869194e-01
	3.000000000000000e+00
	1.100000000000000e+00
	-5.000000000000000e-05
	-4.967863764673830e-05

 12	1.200000000000000e+00
	8.592641204676055e-01
	1.359264120467605e+00
	6.083694438641544e-01
	3.000000000000000e+00
	1.200000000000000e+00
	-5.000000000000000e-05
	-4.968184831626997e-05

 13	1.300000000000000e+00
	8.592641204676055e-01
	1.359264120467605e+00
	6.103476594987025e-01
	3.000000000000000e+00
	1.300000000000000e+00
	-5.000000000000000e-05
	-4.968483407853143e-05

 14	1.400000000000000e+00
	8.592641204676053e-01
	1.359264120467605e+00
	6.122338754438618e-01
	3.000000000000000e+00
	1.400000000000000e+00
	-5.000000000000000e-05
	-4.968766914873661e-05

 15	1.500000000000000e+00
	8.592641204676054e-01
	1.359264120467605e+00
	6.140535470836327e-01
	3.000000000000000e+00
	1.500000000000000e+00
	-5.000000000000000e-05
	-4.969039340075036e-05

 16	1.600000000000000e+00
	8.592641204676053e-01
	1.359264120467605e+00
	6.158218788397390e-01
	3.000000000000000e+00
	1.600000000000000e+00
	-5.000000000000000e-05
	-4.969303077638964e-05

 17	1.700000000000000e+00
	8.592641204676055e-01
	1.359264120467605e+00
	6.175485578459823e-01
	3.000000000000000e+00
	1.700000000000000e+00
	-5.000000000000000e-05
	-4.969559663985535e-05

 18	1.800000000000000e+00
	8.592641204676055e-01
	1.359264120467605e+00
	6.192400809587270e-01
	3.000000000000000e+00
	1.800000000000000e+00
	-5.000000000000000e-05
	-4.969810139136615e-05

 19	1.900000000000001e+00
	8.592641204676053e-01
	1.359264120467605e+00
	6.209009926011898e-01
	3.000000000000000e+00
	1.900000000000001e+00
	-5.000000000000000e-05
	-4.970055238957111e-05

 20	2.000000000000000e+00
	8.592641204676054e-01
	1.359264120467605e+00
	6.225345869806219e-01
	3.000000000000000e+00
	2.000000000000000e+00
	-5.000000000000000e-05
	-4.970295504184194e-05

 21	2.100000000000001e+00
	8.592641204676053e-01
	1.359264120467605e+00
	6.241433273100212e-01
	3.000000000000000e+00
	2.100000000000001e+00
	-5.000000000000000e-05
	-4.970531345507216e-05

 22	2.200000000000001e+00
	8.592641204676055e-01
	1.359264120467605e+00
	6.257291068494919e-01
	3.000000000000000e+00
	2.200000000000001e+00
	-5.000000000000000e-05
	-4.970763084091929e-05

 23	2.300000000000001e+00
	8.592641204676055e-01
	1.359264120467605e+00
	6.272934173170857e-01
	3.000000000000000e+00
	2.300000000000001e+00
	-5.000000000000000e-05
	-4.970990977730373e-05

 24	2.400000000000001e+00
	8.592641204676053e-01
	1.359264120467605e+00
	6.288374608800511e-01
	3.000000000000000e+00
	2.400000000000001e+00
	-5.000000000000000e-05
	-4.971215238238963e-05

 25	2.500000000000001e+00
	8.592641204676054e-01
	1.359264120467605e+00
	6.303622266038190e-01
	3.000000000000000e+00
	2.500000000000001e+00
	-5.000000000000000e-05
	-4.971436043344868e-05

 26	2.600000000000001e+00
	8.592641204676053e-01
	1.359264120467605e+00
	6.318685438458566e-01
	3.000000000000000e+00
	2.600000000000001e+00
	-5.000000000000000e-05
	-4.971653544997006e-05

 27	2.700000000000001e+00
	8.592641204676055e-01
	1.359264120467605e+00
	6.333571203057163e-01
	3.000000000000000e+00
	2.700000000000001e+00
	-5.000000000000000e-05
	-4.971867875298961e-05

 28	2.800000000000001e+00
	8.592641204676055e-01
	1.359264120467605e+00
	6.348285696290605e-01
	3.000000000000000e+00
	2.800000000000001e+00
	-5.000000000000000e-05
	-4.972079150821862e-05

 29	2.900000000000001e+00
	8.592641204676053e-01
	1.359264120467605e+00
	6.362834317548902e-01
	3.000000000000000e+00
	2.900000000000001e+00
	-5.000000000000000e-05
	-4.972287475792623e-05

 30	3.000000000000001e+00
	8.592641204676054e-01
	1.359264120467605e+00
	6.377221881294285e-01
	3.000000000000000e+00
	3.000000000000001e+00
	-5.000000000000000e-05
	-4.972492944485497e-05

