Title: common-emitter amplifier simulation 
Date: Mon Aug 21 20:23:54  2017
Plotname: AC Analysis
Flags: complex
No. Variables: 8
No. Points: 51
Variables:
	0	frequency	frequency grid=3
	1	n1	voltage
	2	n2	voltage
	3	n_in	voltage
	4	n_out	voltage
	5	n_pos	voltage
	6	i(v1)	current
	7	i(v2)	current
Values:
 0	1.000000000000000e-02,0.000000000000000e+00
	1.047968396014627e-03,1.023649633536164e-01
	1.027449218700625e-03,1.003606616573228e-01
	1.000000000000000e+01,0.000000000000000e+00
	-3.967378151581155e-03,-3.875312658673675e-01
	0.000000000000000e+00,0.000000000000000e+00
	-1.006796765163227e-06,-9.834334161450677e-05
	-6.431780337134192e-08,-6.282526849216764e-06

 1	1.258925411794167e-02,0.000000000000000e+00
	1.660816177100031e-03,1.288619550551139e-01
	1.628297465893205e-03,1.263388433707726e-01
	1.000000000000000e+01,0.000000000000000e+00
	-6.287485233216164e-03,-4.878430561455172e-01
	0.000000000000000e+00,0.000000000000000e+00
	-1.595567539053657e-06,-1.237993435636840e-04
	-1.019306008853845e-07,-7.908747934385068e-06

 2	1.584893192461114e-02,0.000000000000000e+00
	2.631960584343986e-03,1.622118325737130e-01
	2.580426906306556e-03,1.590357316839655e-01
	1.000000000000000e+01,0.000000000000000e+00
	-9.964024638395061e-03,-6.140983668289046e-01
	0.000000000000000e+00,0.000000000000000e+00
	-2.528558506565550e-06,-1.558390013739820e-04
	-1.615334240886744e-07,-9.955556667221759e-06

 3	1.995262314968880e-02,0.000000000000000e+00
	4.170734363503149e-03,2.041811661488409e-01
	4.089071559300482e-03,2.001833074650096e-01
	1.000000000000000e+01,0.000000000000000e+00
	-1.578948416072288e-02,-7.729850448008799e-01
	0.000000000000000e+00,0.000000000000000e+00
	-4.006878338601605e-06,-1.961594818771987e-04
	-2.559738191781790e-07,-1.253137417734604e-05

 4	2.511886431509581e-02,0.000000000000000e+00
	6.608556386475378e-03,2.569861685913087e-01
	6.479161129138075e-03,2.519543901706763e-01
	1.000000000000000e+01,0.000000000000000e+00
	-2.501854285005419e-02,-9.728931849519997e-01
	0.000000000000000e+00,0.000000000000000e+00
	-6.348925423328628e-06,-2.468899293274202e-04
	-4.055922219125935e-07,-1.577221786789419e-05

 5	3.162277660168381e-02,0.000000000000000e+00
	1.046980913397004e-02,3.234014137823127e-01
	1.026481070951307e-02,3.170692276417435e-01
	1.000000000000000e+01,0.000000000000000e+00
	-3.963639759300316e-02,-1.224326714536242e+00
	0.000000000000000e+00,0.000000000000000e+00
	-1.005848077866111e-05,-3.106959126663415e-04
	-6.425719781007268e-07,-1.984837388299871e-05

 6	3.981071705534974e-02,0.000000000000000e+00
	1.658337402872828e-02,4.068890905309531e-01
	1.625867225961582e-02,3.989222191753962e-01
	1.000000000000000e+01,0.000000000000000e+00
	-6.278101138477139e-02,-1.540392719883795e+00
	0.000000000000000e+00,0.000000000000000e+00
	-1.593186148657718e-05,-3.909036013725867e-04
	-1.017784690902336e-06,-2.497232990826635e-05

 7	5.011872336272725e-02,0.000000000000000e+00
	2.625740822629112e-02,5.117466470590200e-01
	2.574328927265629e-02,5.017266691371821e-01
	1.000000000000000e+01,0.000000000000000e+00
	-9.940477986769425e-02,-1.937360395989012e+00
	0.000000000000000e+00,0.000000000000000e+00
	-2.522583101201767e-05,-4.916416094240282e-04
	-1.611516936734108e-06,-3.140783667394694e-05

 8	6.309573444801936e-02,0.000000000000000e+00
	4.155137386647939e-02,6.432629493407824e-01
	4.073779970599029e-02,6.306678877270470e-01
	1.000000000000000e+01,0.000000000000000e+00
	-1.573043743236600e-01,-2.435252227683261e+00
	0.000000000000000e+00,0.000000000000000e+00
	-3.991894121611982e-05,-6.179910186305053e-04
	-2.550165734307159e-06,-3.947949198574157e-05

 9	7.943282347242819e-02,0.000000000000000e+00
	6.569483067124204e-02,8.078567298323989e-01
	6.440852863743741e-02,7.920389288884190e-01
	1.000000000000000e+01,0.000000000000000e+00
	-2.487061984579841e-01,-3.058368126112958e+00
	0.000000000000000e+00,0.000000000000000e+00
	-6.311387181071940e-05,-7.761183881152550e-04
	-4.031941438019829e-06,-4.958123784951458e-05

 10	1.000000000000001e-01,0.000000000000000e+00
	1.037207485432680e-01,1.013138436618760e+00
	1.016899006297297e-01,9.933012284513471e-01
	1.000000000000000e+01,0.000000000000000e+00
	-3.926639707849174e-01,-3.835519576023791e+00
	0.000000000000000e+00,0.000000000000000e+00
	-9.964586194659743e-05,-9.733351735886305e-04
	-6.365736539101890e-06,-6.218015638849916e-05

 11	1.258925411794168e-01,0.000000000000000e+00
	1.633950629877075e-01,1.267774697360819e+00
	1.601957944959975e-01,1.242951721870069e+00
	1.000000000000000e+01,0.000000000000000e+00
	-6.185778172690323e-01,-4.799516526037032e+00
	0.000000000000000e+00,0.000000000000000e+00
	-1.569757461057722e-04,-1.217967516112810e-03
	-1.002817601471324e-05,-7.780815148062690e-05

 12	1.584893192461115e-01,0.000000000000000e+00
	2.565122696222400e-01,1.580925093657396e+00
	2.514897701235790e-01,1.549970646519222e+00
	1.000000000000000e+01,0.000000000000000e+00
	-9.710991075512976e-01,-5.985035140100924e+00
	0.000000000000000e+00,0.000000000000000e+00
	-2.464346484707770e-04,-1.518815143961099e-03
	-1.574313288706237e-05,-9.702738146051639e-05

 13	1.995262314968881e-01,0.000000000000000e+00
	4.005352285398159e-01,1.960847728941928e+00
	3.926927655360000e-01,1.922454412512797e+00
	1.000000000000000e+01,0.000000000000000e+00
	-1.516338394068565e+00,-7.423338783847398e+00
	0.000000000000000e+00,0.000000000000000e+00
	-3.847993641424391e-04,-1.883811723697093e-03
	-2.458236924938700e-05,-1.203446775216196e-04

 14	2.511886431509582e-01,0.000000000000000e+00
	6.202743690333964e-01,2.412053771675537e+00
	6.081294228595141e-01,2.364825859822336e+00
	1.000000000000000e+01,0.000000000000000e+00
	-2.348222512288944e+00,-9.131505750151339e+00
	0.000000000000000e+00,0.000000000000000e+00
	-5.959055927940105e-04,-2.317291193091280e-03
	-3.806859544189568e-05,-1.480369072175393e-04

 15	3.162277660168382e-01,0.000000000000000e+00
	9.486520726578089e-01,2.930286670552923e+00
	9.300775047966137e-01,2.872911780238869e+00
	1.000000000000000e+01,0.000000000000000e+00
	-3.591388367080333e+00,-1.109342167076084e+01
	0.000000000000000e+00,0.000000000000000e+00
	-9.113822913453021e-04,-2.815164228361354e-03
	-5.822238314538762e-05,-1.798428298172233e-04

 16	3.981071705534976e-01,0.000000000000000e+00
	1.424473836815366e+00,3.495084070002061e+00
	1.396582698735316e+00,3.426650470255684e+00
	1.000000000000000e+01,0.000000000000000e+00
	-5.392745047629643e+00,-1.323162056222158e+01
	0.000000000000000e+00,0.000000000000000e+00
	-1.368510402049704e-03,-3.357772380382437e-03
	-8.742537321958796e-05,-2.145065927900028e-04

 17	5.011872336272728e-01,0.000000000000000e+00
	2.084006729694612e+00,4.061647848784245e+00
	2.043201965187590e+00,3.982120953972164e+00
	1.000000000000000e+01,0.000000000000000e+00
	-7.889591707709373e+00,-1.537650657783605e+01
	0.000000000000000e+00,0.000000000000000e+00
	-2.002132165449047e-03,-3.902077515829093e-03
	-1.279034134758207e-04,-2.492787651757514e-04

 18	6.309573444801939e-01,0.000000000000000e+00
	2.944069198915848e+00,4.557756963809444e+00
	2.886424447273543e+00,4.468516273297981e+00
	1.000000000000000e+01,0.000000000000000e+00
	-1.114559929568595e+01,-1.725466671247026e+01
	0.000000000000000e+00,0.000000000000000e+00
	-2.828405281263650e-03,-4.378695946379923e-03
	-1.806887159647233e-04,-2.797268670767897e-04

 19	7.943282347242824e-01,0.000000000000000e+00
	3.980590984931432e+00,4.894977554595826e+00
	3.902651180119620e+00,4.799134099036682e+00
	1.000000000000000e+01,0.000000000000000e+00
	-1.506964309616207e+01,-1.853130979563678e+01
	0.000000000000000e+00,0.000000000000000e+00
	-3.824205140448653e-03,-4.702668120771164e-03
	-2.443039973764463e-04,-3.004233763736823e-04

 20	1.000000000000001e+00,0.000000000000000e+00
	5.117374010831573e+00,4.998622144309500e+00
	5.017176041971397e+00,4.900749332023513e+00
	1.000000000000000e+01,0.000000000000000e+00
	-1.937325392755358e+01,-1.892368544582183e+01
	0.000000000000000e+00,0.000000000000000e+00
	-4.916327266956705e-03,-4.802240815947118e-03
	-3.140726921326800e-04,-3.067844387559629e-04

 21	1.258925411794169e+00,0.000000000000000e+00
	6.242144278648412e+00,4.843250725599596e+00
	6.119923355040152e+00,4.748420079186321e+00
	1.000000000000000e+01,0.000000000000000e+00
	-2.363138709555259e+01,-1.833548338332258e+01
	0.000000000000000e+00,0.000000000000000e+00
	-5.996908581714182e-03,-4.652973488467741e-03
	-3.831041182696618e-04,-2.972487042852350e-04

 22	1.584893192461115e+00,0.000000000000000e+00
	7.247191334921441e+00,4.466556963059354e+00
	7.105291632034140e+00,4.379101964743900e+00
	1.000000000000000e+01,0.000000000000000e+00
	-2.743627448293227e+01,-1.690940354253489e+01
	0.000000000000000e+00,0.000000000000000e+00
	-6.962470261761625e-03,-4.291078928455276e-03
	-4.447876758942492e-04,-2.741295764161001e-04

 23	1.995262314968882e+00,0.000000000000000e+00
	8.066689391608435e+00,3.949103211540097e+00
	7.908743951084781e+00,3.871779936012847e+00
	1.000000000000000e+01,0.000000000000000e+00
	-3.053871411539406e+01,-1.495043730267650e+01
	0.000000000000000e+00,0.000000000000000e+00
	-7.749772622851622e-03,-3.793954430109344e-03
	-4.950833862168487e-04,-2.423714730510112e-04

 24	2.511886431509584e+00,0.000000000000000e+00
	8.686444706935346e+00,3.377887716119107e+00
	8.516364483287649e+00,3.311748816074576e+00
	1.000000000000000e+01,0.000000000000000e+00
	-3.288497160436509e+01,-1.278794090965913e+01
	0.000000000000000e+00,0.000000000000000e+00
	-8.345179554049901e-03,-3.245180330443713e-03
	-5.331201253600623e-04,-2.073138071358286e-04

 25	3.162277660168384e+00,0.000000000000000e+00
	9.128979216976472e+00,2.819845851421025e+00
	8.950234186151734e+00,2.764633387721256e+00
	1.000000000000000e+01,0.000000000000000e+00
	-3.456031005267582e+01,-1.067531698885162e+01
	0.000000000000000e+00,0.000000000000000e+00
	-8.770328170054804e-03,-2.709062307858000e-03
	-5.602801501376234e-04,-1.730646570058017e-04

 26	3.981071705534978e+00,0.000000000000000e+00
	9.432170511612984e+00,2.314274088345692e+00
	9.247489007934325e+00,2.268960698597911e+00
	1.000000000000000e+01,0.000000000000000e+00
	-3.570812569546141e+01,-8.761333347255766e+00
	0.000000000000000e+00,0.000000000000000e+00
	-9.061607960386795e-03,-2.223352989182124e-03
	-5.788881521980802e-04,-1.420357964301935e-04

 27	5.011872336272731e+00,0.000000000000000e+00
	9.634055322324020e+00,1.877639813606543e+00
	9.445420922504850e+00,1.840875704675642e+00
	1.000000000000000e+01,0.000000000000000e+00
	-3.647241724298998e+01,-7.108331893758305e+00
	0.000000000000000e+00,0.000000000000000e+00
	-9.255561303953679e-03,-1.803872805391705e-03
	-5.912785903146813e-04,-1.152378915175449e-04

 28	6.309573444801943e+00,0.000000000000000e+00
	9.765943605161572e+00,1.511880138244934e+00
	9.574726838286798e+00,1.482277588442722e+00
	1.000000000000000e+01,0.000000000000000e+00
	-3.697171731135957e+01,-5.723646105257857e+00
	0.000000000000000e+00,0.000000000000000e+00
	-9.382268079681608e-03,-1.452482764068283e-03
	-5.993730754869338e-04,-9.278983013464659e-05

 29	7.943282347242829e+00,0.000000000000000e+00
	9.851033675307608e+00,1.211392703061879e+00
	9.658150848422220e+00,1.187673684658705e+00
	1.000000000000000e+01,0.000000000000000e+00
	-3.729384962612946e+01,-4.586066680435896e+00
	0.000000000000000e+00,0.000000000000000e+00
	-9.464015208408325e-03,-1.163800606414483e-03
	-6.045953764850548e-04,-7.434777420513468e-05

 30	1.000000000000002e+01,0.000000000000000e+00
	9.905489029977444e+00,9.675625957895165e-01
	9.711539969527745e+00,9.486177606772136e-01
	1.000000000000000e+01,0.000000000000000e+00
	-3.750000563729862e+01,-3.662979453789650e+00
	0.000000000000000e+00,0.000000000000000e+00
	-9.516331170546026e-03,-9.295498750138100e-04
	-6.079375085641242e-04,-5.938299382130148e-05

 31	1.258925411794170e+01,0.000000000000000e+00
	9.940158892047092e+00,7.712523071784313e-01
	9.745530997149748e+00,7.561512192973355e-01
	1.000000000000000e+01,0.000000000000000e+00
	-3.763125811954573e+01,-2.919791822437321e+00
	0.000000000000000e+00,0.000000000000000e+00
	-9.549638954552795e-03,-7.409520467839390e-04
	-6.100653297655909e-04,-4.733468531249729e-05

 32	1.584893192461116e+01,0.000000000000000e+00
	9.962159246212089e+00,6.139833998015597e-01
	9.767100585301380e+00,6.019616305418247e-01
	1.000000000000000e+01,0.000000000000000e+00
	-3.771454662783777e+01,-2.324406284645463e+00
	0.000000000000000e+00,0.000000000000000e+00
	-9.570774978778333e-03,-5.898617774495390e-04
	-6.114155751152267e-04,-3.768249475068555e-05

 33	1.995262314968884e+01,0.000000000000000e+00
	9.976090709505900e+00,4.883863744711468e-01
	9.780759271127229e+00,4.788237897084509e-01
	1.000000000000000e+01,0.000000000000000e+00
	-3.776728808769631e+01,-1.848923535266339e+00
	0.000000000000000e+00,0.000000000000000e+00
	-9.584159115391174e-03,-4.691990940158884e-04
	-6.122706019654772e-04,-2.997412796219498e-05

 34	2.511886431509585e+01,0.000000000000000e+00
	9.984900934828723e+00,3.882816889111773e-01
	9.789396992607127e+00,3.806791497002165e-01
	1.000000000000000e+01,0.000000000000000e+00
	-3.780064166552290e+01,-1.469949184635272e+00
	0.000000000000000e+00,0.000000000000000e+00
	-9.592623212580663e-03,-3.730272304532656e-04
	-6.128113189776749e-04,-2.383032295158460e-05

 35	3.162277660168386e+01,0.000000000000000e+00
	9.990467822416257e+00,3.085950638424848e-01
	9.794854880768792e+00,3.025527854137739e-01
	1.000000000000000e+01,0.000000000000000e+00
	-3.782171667911212e+01,-1.168273126012644e+00
	0.000000000000000e+00,0.000000000000000e+00
	-9.597971393343048e-03,-2.964712611596891e-04
	-6.131529800264307e-04,-1.893965191418837e-05

 36	3.981071705534981e+01,0.000000000000000e+00
	9.993983486067332e+00,2.452120325081477e-01
	9.798301707872785e+00,2.404107911790233e-01
	1.000000000000000e+01,0.000000000000000e+00
	-3.783502620944779e+01,-9.283188920365629e-01
	0.000000000000000e+00,0.000000000000000e+00
	-9.601348936792606e-03,-2.355783648124987e-04
	-6.133687496663259e-04,-1.504959438769840e-05

 37	5.011872336272734e+01,0.000000000000000e+00
	9.996202993277521e+00,1.948220982453634e-01
	9.800477757224732e+00,1.910074897192043e-01
	1.000000000000000e+01,0.000000000000000e+00
	-3.784342877621075e+01,-7.375536695221707e-01
	0.000000000000000e+00,0.000000000000000e+00
	-9.603481246018699e-03,-1.871681045360517e-04
	-6.135049692592727e-04,-1.195697261004852e-05

 38	6.309573444801948e+01,0.000000000000000e+00
	9.997603914968213e+00,1.547743812599064e-01
	9.801851248927379e+00,1.517439053554663e-01
	1.000000000000000e+01,0.000000000000000e+00
	-3.784873235800660e+01,-5.859418098582369e-01
	0.000000000000000e+00,0.000000000000000e+00
	-9.604827129569959e-03,-1.486937458946411e-04
	-6.135909491477722e-04,-9.499092013323662e-06

 39	7.943282347242835e+01,0.000000000000000e+00
	9.998488038854884e+00,1.229525332177088e-01
	9.802718061705368e+00,1.205451277655078e-01
	1.000000000000000e+01,0.000000000000000e+00
	-3.785207945683573e+01,-4.654712831270204e-01
	0.000000000000000e+00,0.000000000000000e+00
	-9.605676518800101e-03,-1.181220857260333e-04
	-6.136452111908980e-04,-7.546064256881702e-06

 40	1.000000000000003e+02,0.000000000000000e+00
	9.999045963777784e+00,9.767011844496019e-02
	9.803265062481639e+00,9.575774161539806e-02
	1.000000000000000e+01,0.000000000000000e+00
	-3.785419163804058e+01,-3.697576143083136e-01
	0.000000000000000e+00,0.000000000000000e+00
	-9.606212524475190e-03,-9.383294350998979e-05
	-6.136794531638654e-04,-5.994386373942007e-06

 41	1.258925411794171e+02,0.000000000000000e+00
	9.999398022644268e+00,7.758486437807433e-02
	9.803610228050259e+00,7.606575598214295e-02
	1.000000000000000e+01,0.000000000000000e+00
	-3.785552445557618e+01,-2.937192543186796e-01
	0.000000000000000e+00,0.000000000000000e+00
	-9.606550751972578e-03,-7.453678066870121e-05
	-6.137010603545364e-04,-4.761677995873681e-06

 42	1.584893192461118e+02,0.000000000000000e+00
	9.999620169528054e+00,6.162921748862364e-02
	9.803828025307363e+00,6.042251999070153e-02
	1.000000000000000e+01,0.000000000000000e+00
	-3.785636545488162e+01,-2.333146799972733e-01
	0.000000000000000e+00,0.000000000000000e+00
	-9.606764171351289e-03,-5.920798474749154e-05
	-6.137146943530855e-04,-3.782419305251028e-06

 43	1.995262314968885e+02,0.000000000000000e+00
	9.999760339814664e+00,4.895451374844533e-02
	9.803965451065629e+00,4.799598641904760e-02
	1.000000000000000e+01,0.000000000000000e+00
	-3.785689610879706e+01,-1.853310357501949e-01
	0.000000000000000e+00,0.000000000000000e+00
	-9.606898834754945e-03,-4.703123326000141e-05
	-6.137232971363058e-04,-3.004524565225486e-06

 44	2.511886431509587e+02,0.000000000000000e+00
	9.999848783308451e+00,3.888629641678049e-02
	9.804052162839511e+00,3.812490436116582e-02
	1.000000000000000e+01,0.000000000000000e+00
	-3.785723093643712e+01,-1.472149765074500e-01
	0.000000000000000e+00,0.000000000000000e+00
	-9.606983803561049e-03,-3.735856690953732e-05
	-6.137287252496579e-04,-2.386599802312039e-06

 45	3.162277660168388e+02,0.000000000000000e+00
	9.999904588185411e+00,3.088865556311337e-02
	9.804106875059317e+00,3.028385698054063e-02
	1.000000000000000e+01,0.000000000000000e+00
	-3.785744220144324e+01,-1.169376649895663e-01
	0.000000000000000e+00,0.000000000000000e+00
	-9.607037416026670e-03,-2.967513010836023e-05
	-6.137321502070488e-04,-1.895754187297705e-06

 46	3.981071705534984e+02,0.000000000000000e+00
	9.999939799002858e+00,2.453581763959388e-02
	9.804141396450433e+00,2.405540735756107e-02
	1.000000000000000e+01,0.000000000000000e+00
	-3.785757550186372e+01,-9.288721606939143e-02
	0.000000000000000e+00,0.000000000000000e+00
	-9.607071243513491e-03,-2.357187671319161e-05
	-6.137343112287377e-04,-1.505856379369064e-06

 47	5.011872336272738e+02,0.000000000000000e+00
	9.999962015654319e+00,1.948953601256283e-02
	9.804163178100788e+00,1.910793171349212e-02
	1.000000000000000e+01,0.000000000000000e+00
	-3.785765960922607e+01,-7.378310229082197e-02
	0.000000000000000e+00,0.000000000000000e+00
	-9.607092587337322e-03,-1.872384881700821e-05
	-6.137356747490744e-04,-1.196146897031181e-06

 48	6.309573444801952e+02,0.000000000000000e+00
	9.999976033464524e+00,1.548111043763314e-02
	9.804176921442856e+00,1.517799094348094e-02
	1.000000000000000e+01,0.000000000000000e+00
	-3.785771267757636e+01,-5.860808355104576e-02
	0.000000000000000e+00,0.000000000000000e+00
	-9.607106054428523e-03,-1.487290262666104e-05
	-6.137365350753627e-04,-9.501345850093657e-07

 49	7.943282347242839e+02,0.000000000000000e+00
	9.999984878125044e+00,1.229709400187541e-02
	9.804185592925295e+00,1.205631741621594e-02
	1.000000000000000e+01,0.000000000000000e+00
	-3.785774616151829e+01,-4.655409672325578e-02
	0.000000000000000e+00,0.000000000000000e+00
	-9.607114551608054e-03,-1.181397693773914e-05
	-6.137370779057940e-04,-7.547193952017750e-07

 50	1.000000000000003e+03,0.000000000000000e+00
	9.999990458736610e+00,9.767934421858231e-03
	9.804191064268720e+00,9.576678674875895e-03
	1.000000000000000e+01,0.000000000000000e+00
	-3.785776728848784e+01,-3.697925410607223e-02
	0.000000000000000e+00,0.000000000000000e+00
	-9.607119912973619e-03,-9.384180682979426e-06
	-6.137374204091355e-04,-5.994952594345904e-07

