Title: the widlar current mirror simulation testbench 
Date: Sat Sep  9 13:26:48  2017
Plotname: DC transfer characteristic
Flags: real
No. Variables: 6
No. Points: 51
Variables:
	0	n2	voltage
	1	n1	voltage
	2	n_pos	voltage
	3	v-sweep	voltage
	4	i(v1)	current
	5	i(v2)	current
Values:
 0	0.000000000000000e+00
	6.214204435440506e-01
	5.000000000000000e+00
	0.000000000000000e+00
	-5.000000000000000e-05
	1.307075936093878e-05

 1	1.000000000000000e-01
	6.632495368652631e-01
	5.000000000000000e+00
	1.000000000000000e-01
	-5.000000000000000e-05
	-4.016814166808016e-05

 2	2.000000000000000e-01
	6.659034938154634e-01
	5.000000000000000e+00
	2.000000000000000e-01
	-5.000000000000000e-05
	-4.846492145558472e-05

 3	3.000000000000000e-01
	6.654803165835667e-01
	5.000000000000000e+00
	3.000000000000000e-01
	-5.000000000000000e-05
	-4.883369267168514e-05

 4	4.000000000000000e-01
	6.654874034681129e-01
	5.000000000000000e+00
	4.000000000000000e-01
	-5.000000000000000e-05
	-4.893888028659013e-05

 5	5.000000000000000e-01
	6.654843083594849e-01
	5.000000000000000e+00
	5.000000000000000e-01
	-5.000000000000000e-05
	-4.902768673700262e-05

 6	6.000000000000000e-01
	6.654843766539018e-01
	5.000000000000000e+00
	6.000000000000000e-01
	-5.000000000000000e-05
	-4.911531366679831e-05

 7	7.000000000000000e-01
	6.654843946073516e-01
	5.000000000000000e+00
	7.000000000000000e-01
	-5.000000000000000e-05
	-4.920268702813624e-05

 8	7.999999999999999e-01
	6.654844053063855e-01
	5.000000000000000e+00
	7.999999999999999e-01
	-5.000000000000000e-05
	-4.929001444178943e-05

 9	8.999999999999999e-01
	6.654844149178046e-01
	5.000000000000000e+00
	8.999999999999999e-01
	-5.000000000000000e-05
	-4.937732551171675e-05

 10	9.999999999999999e-01
	6.654844243818878e-01
	5.000000000000000e+00
	9.999999999999999e-01
	-5.000000000000000e-05
	-4.946462463098199e-05

 11	1.100000000000000e+00
	6.654844338249675e-01
	5.000000000000000e+00
	1.100000000000000e+00
	-5.000000000000000e-05
	-4.955191239326059e-05

 12	1.200000000000000e+00
	6.654844432616008e-01
	5.000000000000000e+00
	1.200000000000000e+00
	-5.000000000000000e-05
	-4.963918886985152e-05

 13	1.300000000000000e+00
	6.654844526948718e-01
	5.000000000000000e+00
	1.300000000000000e+00
	-5.000000000000000e-05
	-4.972645407840386e-05

 14	1.400000000000000e+00
	6.654844621256947e-01
	5.000000000000000e+00
	1.400000000000000e+00
	-5.000000000000000e-05
	-4.981370802646713e-05

 15	1.500000000000000e+00
	6.654844715544090e-01
	5.000000000000000e+00
	1.500000000000000e+00
	-5.000000000000000e-05
	-4.990095071886386e-05

 16	1.600000000000000e+00
	6.654844809811593e-01
	5.000000000000000e+00
	1.600000000000000e+00
	-5.000000000000000e-05
	-4.998818215950065e-05

 17	1.700000000000000e+00
	6.654844904060164e-01
	5.000000000000000e+00
	1.700000000000000e+00
	-5.000000000000000e-05
	-5.007540235194755e-05

 18	1.800000000000000e+00
	6.654844998290174e-01
	5.000000000000000e+00
	1.800000000000000e+00
	-5.000000000000000e-05
	-5.016261129961158e-05

 19	1.900000000000001e+00
	6.654845092501809e-01
	5.000000000000000e+00
	1.900000000000001e+00
	-5.000000000000000e-05
	-5.024980900581646e-05

 20	2.000000000000000e+00
	6.654845186695176e-01
	5.000000000000000e+00
	2.000000000000000e+00
	-5.000000000000000e-05
	-5.033699547385121e-05

 21	2.100000000000001e+00
	6.654845280870398e-01
	5.000000000000000e+00
	2.100000000000001e+00
	-5.000000000000000e-05
	-5.042417070698061e-05

 22	2.200000000000001e+00
	6.654845375027505e-01
	5.000000000000000e+00
	2.200000000000001e+00
	-5.000000000000000e-05
	-5.051133470845550e-05

 23	2.300000000000001e+00
	6.654845469166497e-01
	5.000000000000000e+00
	2.300000000000001e+00
	-5.000000000000000e-05
	-5.059848748150248e-05

 24	2.400000000000001e+00
	6.654845563287456e-01
	5.000000000000000e+00
	2.400000000000001e+00
	-5.000000000000000e-05
	-5.068562902941754e-05

 25	2.500000000000001e+00
	6.654845657390374e-01
	5.000000000000000e+00
	2.500000000000001e+00
	-5.000000000000000e-05
	-5.077275935536478e-05

 26	2.600000000000001e+00
	6.654845751475272e-01
	5.000000000000000e+00
	2.600000000000001e+00
	-5.000000000000000e-05
	-5.085987846263327e-05

 27	2.700000000000001e+00
	6.654845845542166e-01
	5.000000000000000e+00
	2.700000000000001e+00
	-5.000000000000000e-05
	-5.094698635438713e-05

 28	2.800000000000001e+00
	6.654845939591038e-01
	5.000000000000000e+00
	2.800000000000001e+00
	-5.000000000000000e-05
	-5.103408303389458e-05

 29	2.900000000000001e+00
	6.654846033621906e-01
	5.000000000000000e+00
	2.900000000000001e+00
	-5.000000000000000e-05
	-5.112116850436833e-05

 30	3.000000000000001e+00
	6.654846127634799e-01
	5.000000000000000e+00
	3.000000000000001e+00
	-5.000000000000000e-05
	-5.120824276903496e-05

 31	3.100000000000001e+00
	6.654846221629765e-01
	5.000000000000000e+00
	3.100000000000001e+00
	-5.000000000000000e-05
	-5.129530583109331e-05

 32	3.200000000000002e+00
	6.654846315606746e-01
	5.000000000000000e+00
	3.200000000000002e+00
	-5.000000000000000e-05
	-5.138235769379078e-05

 33	3.300000000000002e+00
	6.654846409565737e-01
	5.000000000000000e+00
	3.300000000000002e+00
	-5.000000000000000e-05
	-5.146939836031230e-05

 34	3.400000000000002e+00
	6.654846503506833e-01
	5.000000000000000e+00
	3.400000000000002e+00
	-5.000000000000000e-05
	-5.155642783388450e-05

 35	3.500000000000002e+00
	6.654846597429971e-01
	5.000000000000000e+00
	3.500000000000002e+00
	-5.000000000000000e-05
	-5.164344611774780e-05

 36	3.600000000000002e+00
	6.654846691335149e-01
	5.000000000000000e+00
	3.600000000000002e+00
	-5.000000000000000e-05
	-5.173045321505248e-05

 37	3.700000000000002e+00
	6.654846785222405e-01
	5.000000000000000e+00
	3.700000000000002e+00
	-5.000000000000000e-05
	-5.181744912905289e-05

 38	3.800000000000002e+00
	6.654846879091754e-01
	5.000000000000000e+00
	3.800000000000002e+00
	-5.000000000000000e-05
	-5.190443386297559e-05

 39	3.900000000000002e+00
	6.654846972943192e-01
	5.000000000000000e+00
	3.900000000000002e+00
	-5.000000000000000e-05
	-5.199140741999167e-05

 40	4.000000000000002e+00
	6.654847066776691e-01
	5.000000000000000e+00
	4.000000000000002e+00
	-5.000000000000000e-05
	-5.207836980327914e-05

 41	4.100000000000001e+00
	6.654847160592291e-01
	5.000000000000000e+00
	4.100000000000001e+00
	-5.000000000000000e-05
	-5.216532101609234e-05

 42	4.200000000000001e+00
	6.654847254390042e-01
	5.000000000000000e+00
	4.200000000000001e+00
	-5.000000000000000e-05
	-5.225226106164399e-05

 43	4.300000000000001e+00
	6.654847348169864e-01
	5.000000000000000e+00
	4.300000000000001e+00
	-5.000000000000000e-05
	-5.233918994308433e-05

 44	4.400000000000000e+00
	6.654847441931804e-01
	5.000000000000000e+00
	4.400000000000000e+00
	-5.000000000000000e-05
	-5.242610766364689e-05

 45	4.500000000000000e+00
	6.654847535675854e-01
	5.000000000000000e+00
	4.500000000000000e+00
	-5.000000000000000e-05
	-5.251301422650970e-05

 46	4.600000000000000e+00
	6.654847629402044e-01
	5.000000000000000e+00
	4.600000000000000e+00
	-5.000000000000000e-05
	-5.259990963490625e-05

 47	4.699999999999999e+00
	6.654847723110375e-01
	5.000000000000000e+00
	4.699999999999999e+00
	-5.000000000000000e-05
	-5.268679389194520e-05

 48	4.799999999999999e+00
	6.654847816800855e-01
	5.000000000000000e+00
	4.799999999999999e+00
	-5.000000000000000e-05
	-5.277366700094332e-05

 49	4.899999999999999e+00
	6.654847910473458e-01
	5.000000000000000e+00
	4.899999999999999e+00
	-5.000000000000000e-05
	-5.286052896496761e-05

 50	4.999999999999998e+00
	6.654848004128204e-01
	5.000000000000000e+00
	4.999999999999998e+00
	-5.000000000000000e-05
	-5.294737978729323e-05

