Title: wilson current mirror simulation testbench
Date: Wed Sep 20 15:41:55  2017
Plotname: DC transfer characteristic
Flags: real
No. Variables: 7
No. Points: 51
Variables:
	0	n2	voltage
	1	n1	voltage
	2	n3	voltage
	3	n_pos	voltage
	4	v-sweep	voltage
	5	i(v1)	current
	6	i(v2)	current
Values:
 0	0.000000000000000e+00
	1.230588444041779e-03
	6.271661519348182e-01
	5.000000000000000e+00
	0.000000000000000e+00
	-5.000000000000000e-05
	1.604033580044178e-05

 1	1.000000000000000e-01
	1.012305861163307e-01
	7.271661516922069e-01
	5.000000000000000e+00
	1.000000000000000e-01
	-5.000000000000000e-05
	1.604033449966547e-05

 2	2.000000000000000e-01
	2.012305809998062e-01
	8.271661509421524e-01
	5.000000000000000e+00
	2.000000000000000e-01
	-5.000000000000000e-05
	1.604033201888256e-05

 3	3.000000000000000e-01
	3.012304560444146e-01
	9.271661271070529e-01
	5.000000000000000e+00
	3.000000000000000e-01
	-5.000000000000000e-05
	1.604027791018078e-05

 4	4.000000000000000e-01
	4.012248056890201e-01
	1.027165017571304e+00
	5.000000000000000e+00
	4.000000000000000e-01
	-5.000000000000000e-05
	1.603783308463466e-05

 5	5.000000000000000e-01
	5.009637896806035e-01
	1.127113373561866e+00
	5.000000000000000e+00
	5.000000000000000e-01
	-5.000000000000000e-05
	1.592469919480480e-05

 6	6.000000000000000e-01
	5.929312229382165e-01
	1.225291324700100e+00
	5.000000000000000e+00
	6.000000000000000e-01
	-5.000000000000000e-05
	1.205578417708675e-05

 7	7.000000000000000e-01
	6.490513250517852e-01
	1.305204278342722e+00
	5.000000000000000e+00
	7.000000000000000e-01
	-5.000000000000000e-05
	-1.858153083683279e-05

 8	7.999999999999999e-01
	6.652710373920844e-01
	1.330705446463875e+00
	5.000000000000000e+00
	7.999999999999999e-01
	-5.000000000000000e-05
	-4.735538812799107e-05

 9	8.999999999999999e-01
	6.656386749280047e-01
	1.331511369266561e+00
	5.000000000000000e+00
	8.999999999999999e-01
	-5.000000000000000e-05
	-4.932505777730569e-05

 10	9.999999999999999e-01
	6.653950775765124e-01
	1.331177065285185e+00
	5.000000000000000e+00
	9.999999999999999e-01
	-5.000000000000000e-05
	-4.940154574605943e-05

 11	1.100000000000000e+00
	6.653918315390043e-01
	1.331118413863352e+00
	5.000000000000000e+00
	1.100000000000000e+00
	-5.000000000000000e-05
	-4.940940496426522e-05

 12	1.200000000000000e+00
	6.653913819015702e-01
	1.331070578551707e+00
	5.000000000000000e+00
	1.200000000000000e+00
	-5.000000000000000e-05
	-4.941176539180234e-05

 13	1.300000000000000e+00
	6.653918470383732e-01
	1.331023673025723e+00
	5.000000000000000e+00
	1.300000000000000e+00
	-5.000000000000000e-05
	-4.941343075240880e-05

 14	1.400000000000000e+00
	6.653922840581009e-01
	1.330976815432900e+00
	5.000000000000000e+00
	1.400000000000000e+00
	-5.000000000000000e-05
	-4.941499278812630e-05

 15	1.500000000000000e+00
	6.653927157141448e-01
	1.330930037500045e+00
	5.000000000000000e+00
	1.500000000000000e+00
	-5.000000000000000e-05
	-4.941653519405650e-05

 16	1.600000000000000e+00
	6.653931452774144e-01
	1.330883343657869e+00
	5.000000000000000e+00
	1.600000000000000e+00
	-5.000000000000000e-05
	-4.941807002261843e-05

 17	1.700000000000000e+00
	6.653935732536710e-01
	1.330836734319820e+00
	5.000000000000000e+00
	1.700000000000000e+00
	-5.000000000000000e-05
	-4.941959912831283e-05

 18	1.800000000000000e+00
	6.653939997069866e-01
	1.330790209260261e+00
	5.000000000000000e+00
	1.800000000000000e+00
	-5.000000000000000e-05
	-4.942112274556054e-05

 19	1.900000000000001e+00
	6.653944246536437e-01
	1.330743768186012e+00
	5.000000000000000e+00
	1.900000000000001e+00
	-5.000000000000000e-05
	-4.942264093363021e-05

 20	2.000000000000000e+00
	6.653948481037230e-01
	1.330697410796598e+00
	5.000000000000000e+00
	2.000000000000000e+00
	-5.000000000000000e-05
	-4.942415372896145e-05

 21	2.100000000000001e+00
	6.653952700659043e-01
	1.330651136791239e+00
	5.000000000000000e+00
	2.100000000000001e+00
	-5.000000000000000e-05
	-4.942566116286601e-05

 22	2.200000000000001e+00
	6.653956905484394e-01
	1.330604945870292e+00
	5.000000000000000e+00
	2.200000000000001e+00
	-5.000000000000000e-05
	-4.942716326513953e-05

 23	2.300000000000001e+00
	6.653961095593640e-01
	1.330558837735453e+00
	5.000000000000000e+00
	2.300000000000001e+00
	-5.000000000000000e-05
	-4.942866006472412e-05

 24	2.400000000000001e+00
	6.653965271066052e-01
	1.330512812089980e+00
	5.000000000000000e+00
	2.400000000000001e+00
	-5.000000000000000e-05
	-4.943015159023578e-05

 25	2.500000000000001e+00
	6.653969431980072e-01
	1.330466868638666e+00
	5.000000000000000e+00
	2.500000000000001e+00
	-5.000000000000000e-05
	-4.943163786995051e-05

 26	2.600000000000001e+00
	6.653973578413557e-01
	1.330421007087894e+00
	5.000000000000000e+00
	2.600000000000001e+00
	-5.000000000000000e-05
	-4.943311893191531e-05

 27	2.700000000000001e+00
	6.653977710443681e-01
	1.330375227145608e+00
	5.000000000000000e+00
	2.700000000000001e+00
	-5.000000000000000e-05
	-4.943459480394821e-05

 28	2.800000000000001e+00
	6.653981828147002e-01
	1.330329528521320e+00
	5.000000000000000e+00
	2.800000000000001e+00
	-5.000000000000000e-05
	-4.943606551369377e-05

 29	2.900000000000001e+00
	6.653985931599463e-01
	1.330283910926032e+00
	5.000000000000000e+00
	2.900000000000001e+00
	-5.000000000000000e-05
	-4.943753108850510e-05

 30	3.000000000000001e+00
	6.653990020876620e-01
	1.330238374072347e+00
	5.000000000000000e+00
	3.000000000000001e+00
	-5.000000000000000e-05
	-4.943899155558961e-05

 31	3.100000000000001e+00
	6.653994096053353e-01
	1.330192917674368e+00
	5.000000000000000e+00
	3.100000000000001e+00
	-5.000000000000000e-05
	-4.944044694198816e-05

 32	3.200000000000002e+00
	6.653998157203954e-01
	1.330147541447711e+00
	5.000000000000000e+00
	3.200000000000002e+00
	-5.000000000000000e-05
	-4.944189727453347e-05

 33	3.300000000000002e+00
	6.654002204402465e-01
	1.330102245109519e+00
	5.000000000000000e+00
	3.300000000000002e+00
	-5.000000000000000e-05
	-4.944334257980149e-05

 34	3.400000000000002e+00
	6.654006237722099e-01
	1.330057028378427e+00
	5.000000000000000e+00
	3.400000000000002e+00
	-5.000000000000000e-05
	-4.944478288425717e-05

 35	3.500000000000002e+00
	6.654010257235667e-01
	1.330011890974532e+00
	5.000000000000000e+00
	3.500000000000002e+00
	-5.000000000000000e-05
	-4.944621821419197e-05

 36	3.600000000000002e+00
	6.654014263015472e-01
	1.329966832619398e+00
	5.000000000000000e+00
	3.600000000000002e+00
	-5.000000000000000e-05
	-4.944764859555043e-05

 37	3.700000000000002e+00
	6.654018255133323e-01
	1.329921853036115e+00
	5.000000000000000e+00
	3.700000000000002e+00
	-5.000000000000000e-05
	-4.944907405437420e-05

 38	3.800000000000002e+00
	6.654022233660467e-01
	1.329876951949165e+00
	5.000000000000000e+00
	3.800000000000002e+00
	-5.000000000000000e-05
	-4.945049461624005e-05

 39	3.900000000000002e+00
	6.654026198667821e-01
	1.329832129084530e+00
	5.000000000000000e+00
	3.900000000000002e+00
	-5.000000000000000e-05
	-4.945191030678720e-05

 40	4.000000000000002e+00
	6.654030150225555e-01
	1.329787384169579e+00
	5.000000000000000e+00
	4.000000000000002e+00
	-5.000000000000000e-05
	-4.945332115127322e-05

 41	4.100000000000001e+00
	6.654034088403472e-01
	1.329742716933096e+00
	5.000000000000000e+00
	4.100000000000001e+00
	-5.000000000000000e-05
	-4.945472717486547e-05

 42	4.200000000000001e+00
	6.654038013270942e-01
	1.329698127105338e+00
	5.000000000000000e+00
	4.200000000000001e+00
	-5.000000000000000e-05
	-4.945612840264114e-05

 43	4.300000000000001e+00
	6.654041924896766e-01
	1.329653614417914e+00
	5.000000000000000e+00
	4.300000000000001e+00
	-5.000000000000000e-05
	-4.945752485930266e-05

 44	4.400000000000000e+00
	6.654045823349358e-01
	1.329609178603878e+00
	5.000000000000000e+00
	4.400000000000000e+00
	-5.000000000000000e-05
	-4.945891656964965e-05

 45	4.500000000000000e+00
	6.654049708696549e-01
	1.329564819397592e+00
	5.000000000000000e+00
	4.500000000000000e+00
	-5.000000000000000e-05
	-4.946030355799599e-05

 46	4.600000000000000e+00
	6.654053581005777e-01
	1.329520536534889e+00
	5.000000000000000e+00
	4.600000000000000e+00
	-5.000000000000000e-05
	-4.946168584879436e-05

 47	4.699999999999999e+00
	6.654057440344016e-01
	1.329476329752886e+00
	5.000000000000000e+00
	4.699999999999999e+00
	-5.000000000000000e-05
	-4.946306346610882e-05

 48	4.799999999999999e+00
	6.654061286777737e-01
	1.329432198790119e+00
	5.000000000000000e+00
	4.799999999999999e+00
	-5.000000000000000e-05
	-4.946443643396185e-05

 49	4.899999999999999e+00
	6.654065120372938e-01
	1.329388143386412e+00
	5.000000000000000e+00
	4.899999999999999e+00
	-5.000000000000000e-05
	-4.946580477611219e-05

 50	4.999999999999998e+00
	6.654068941195332e-01
	1.329344163282989e+00
	5.000000000000000e+00
	4.999999999999998e+00
	-5.000000000000000e-05
	-4.946716851624924e-05

