Title: mos current mirror with cascode stage simulation testbench (dc)
Date: Fri Oct  6 13:36:35  2017
Plotname: DC transfer characteristic
Flags: real
No. Variables: 8
No. Points: 31
Variables:
	0	n2	voltage
	1	n1	voltage
	2	n3	voltage
	3	n4	voltage
	4	n_pos	voltage
	5	v-sweep	voltage
	6	i(v1)	current
	7	i(v2)	current
Values:
 0	0.000000000000000e+00
	8.592641204676053e-01
	1.359264120467605e+00
	1.012657245461196e-17
	3.000000000000000e+00
	0.000000000000000e+00
	-5.000000000000000e-05
	3.621843592449108e-21

 1	1.000000000000000e-01
	8.592641204676053e-01
	1.359264120467605e+00
	8.958515476818517e-02
	3.000000000000000e+00
	1.000000000000000e-01
	-5.000000000000000e-05
	-2.583027737096868e-05

 2	2.000000000000000e-01
	8.592641204676055e-01
	1.359264120467605e+00
	1.801455343779991e-01
	3.000000000000000e+00
	2.000000000000000e-01
	-5.000000000000000e-05
	-4.138652949807733e-05

 3	3.000000000000000e-01
	8.592641204676055e-01
	1.359264120467605e+00
	2.711602468166326e-01
	3.000000000000000e+00
	3.000000000000000e-01
	-5.000000000000000e-05
	-4.760765171824233e-05

 4	4.000000000000000e-01
	8.592641204676053e-01
	1.359264120467605e+00
	3.586711711210884e-01
	3.000000000000000e+00
	4.000000000000000e-01
	-5.000000000000000e-05
	-4.896954119418766e-05

 5	5.000000000000000e-01
	8.592641204676055e-01
	1.359264120467605e+00
	4.327015315864327e-01
	3.000000000000000e+00
	5.000000000000000e-01
	-5.000000000000000e-05
	-4.931549897618586e-05

 6	6.000000000000000e-01
	8.592641204676053e-01
	1.359264120467605e+00
	4.746594550092528e-01
	3.000000000000000e+00
	6.000000000000000e-01
	-5.000000000000000e-05
	-4.943241895283073e-05

 7	7.000000000000000e-01
	8.592641204676055e-01
	1.359264120467605e+00
	4.845595684771303e-01
	3.000000000000000e+00
	7.000000000000000e-01
	-5.000000000000000e-05
	-4.945589195854837e-05

 8	7.999999999999999e-01
	8.592641204676055e-01
	1.359264120467605e+00
	4.877588123179146e-01
	3.000000000000000e+00
	7.999999999999999e-01
	-5.000000000000000e-05
	-4.946325239752988e-05

 9	8.999999999999999e-01
	8.592641204676053e-01
	1.359264120467605e+00
	4.902044924753525e-01
	3.000000000000000e+00
	8.999999999999999e-01
	-5.000000000000000e-05
	-4.946853259774531e-05

 10	9.999999999999999e-01
	8.592641204676054e-01
	1.359264120467605e+00
	4.921055901295066e-01
	3.000000000000000e+00
	9.999999999999999e-01
	-5.000000000000000e-05
	-4.947277584480361e-05

 11	1.100000000000000e+00
	8.592641204676053e-01
	1.359264120467605e+00
	4.938279867826004e-01
	3.000000000000000e+00
	1.100000000000000e+00
	-5.000000000000000e-05
	-4.947658640032805e-05

 12	1.200000000000000e+00
	8.592641204676055e-01
	1.359264120467605e+00
	4.954419685206875e-01
	3.000000000000000e+00
	1.200000000000000e+00
	-5.000000000000000e-05
	-4.948012980363775e-05

 13	1.300000000000000e+00
	8.592641204676055e-01
	1.359264120467605e+00
	4.969836797188289e-01
	3.000000000000000e+00
	1.300000000000000e+00
	-5.000000000000000e-05
	-4.948348934224480e-05

 14	1.400000000000000e+00
	8.592641204676053e-01
	1.359264120467605e+00
	4.984726345783685e-01
	3.000000000000000e+00
	1.400000000000000e+00
	-5.000000000000000e-05
	-4.948671094289934e-05

 15	1.500000000000000e+00
	8.592641204676054e-01
	1.359264120467605e+00
	4.999205736268720e-01
	3.000000000000000e+00
	1.500000000000000e+00
	-5.000000000000000e-05
	-4.948982252327323e-05

 16	1.600000000000000e+00
	8.592641204676053e-01
	1.359264120467605e+00
	5.013350231968088e-01
	3.000000000000000e+00
	1.600000000000000e+00
	-5.000000000000000e-05
	-4.949284222754535e-05

 17	1.700000000000000e+00
	8.592641204676055e-01
	1.359264120467605e+00
	5.027210577674392e-01
	3.000000000000000e+00
	1.700000000000000e+00
	-5.000000000000000e-05
	-4.949578250318387e-05

 18	1.800000000000000e+00
	8.592641204676055e-01
	1.359264120467605e+00
	5.040822438845040e-01
	3.000000000000000e+00
	1.800000000000000e+00
	-5.000000000000000e-05
	-4.949865228460592e-05

 19	1.900000000000001e+00
	8.592641204676053e-01
	1.359264120467605e+00
	5.054211785225821e-01
	3.000000000000000e+00
	1.900000000000001e+00
	-5.000000000000000e-05
	-4.950145823823596e-05

 20	2.000000000000000e+00
	8.592641204676054e-01
	1.359264120467605e+00
	5.067398119306243e-01
	3.000000000000000e+00
	2.000000000000000e+00
	-5.000000000000000e-05
	-4.950420550908254e-05

 21	2.100000000000001e+00
	8.592641204676053e-01
	1.359264120467605e+00
	5.080396494278052e-01
	3.000000000000000e+00
	2.100000000000001e+00
	-5.000000000000000e-05
	-4.950689818751844e-05

 22	2.200000000000001e+00
	8.592641204676055e-01
	1.359264120467605e+00
	5.093218820180121e-01
	3.000000000000000e+00
	2.200000000000001e+00
	-5.000000000000000e-05
	-4.950953961163835e-05

 23	2.300000000000001e+00
	8.592641204676055e-01
	1.359264120467605e+00
	5.105874734931735e-01
	3.000000000000000e+00
	2.300000000000001e+00
	-5.000000000000000e-05
	-4.951213256915892e-05

 24	2.400000000000001e+00
	8.592641204676053e-01
	1.359264120467605e+00
	5.118372200400731e-01
	3.000000000000000e+00
	2.400000000000001e+00
	-5.000000000000000e-05
	-4.951467943586181e-05

 25	2.500000000000001e+00
	8.592641204676054e-01
	1.359264120467605e+00
	5.130717919617030e-01
	3.000000000000000e+00
	2.500000000000001e+00
	-5.000000000000000e-05
	-4.951718227276557e-05

 26	2.600000000000001e+00
	8.592641204676053e-01
	1.359264120467605e+00
	5.142917634662203e-01
	3.000000000000000e+00
	2.600000000000001e+00
	-5.000000000000000e-05
	-4.951964289576585e-05

 27	2.700000000000001e+00
	8.592641204676055e-01
	1.359264120467605e+00
	5.154976343146374e-01
	3.000000000000000e+00
	2.700000000000001e+00
	-5.000000000000000e-05
	-4.952206292648464e-05

 28	2.800000000000001e+00
	8.592641204676055e-01
	1.359264120467605e+00
	5.166898458018169e-01
	3.000000000000000e+00
	2.800000000000001e+00
	-5.000000000000000e-05
	-4.952444383003556e-05

 29	2.900000000000001e+00
	8.592641204676053e-01
	1.359264120467605e+00
	5.178687927219514e-01
	3.000000000000000e+00
	2.900000000000001e+00
	-5.000000000000000e-05
	-4.952678694350844e-05

 30	3.000000000000001e+00
	8.592641204676054e-01
	1.359264120467605e+00
	5.190348324423373e-01
	3.000000000000000e+00
	3.000000000000001e+00
	-5.000000000000000e-05
	-4.952909349776225e-05

