Title: monte carlo simulation plot
Date: Thu Sep 28 10:20:42  2017
Plotname: monte_carlo
Flags: real
No. Variables: 101
No. Points: 51
Variables:
	0	voltage_sweep	voltage
	1	output_current_0	notype
	2	output_current_1	notype
	3	output_current_2	notype
	4	output_current_3	notype
	5	output_current_4	notype
	6	output_current_5	notype
	7	output_current_6	notype
	8	output_current_7	notype
	9	output_current_8	notype
	10	output_current_9	notype
	11	output_current_10	notype
	12	output_current_11	notype
	13	output_current_12	notype
	14	output_current_13	notype
	15	output_current_14	notype
	16	output_current_15	notype
	17	output_current_16	notype
	18	output_current_17	notype
	19	output_current_18	notype
	20	output_current_19	notype
	21	output_current_20	notype
	22	output_current_21	notype
	23	output_current_22	notype
	24	output_current_23	notype
	25	output_current_24	notype
	26	output_current_25	notype
	27	output_current_26	notype
	28	output_current_27	notype
	29	output_current_28	notype
	30	output_current_29	notype
	31	output_current_30	notype
	32	output_current_31	notype
	33	output_current_32	notype
	34	output_current_33	notype
	35	output_current_34	notype
	36	output_current_35	notype
	37	output_current_36	notype
	38	output_current_37	notype
	39	output_current_38	notype
	40	output_current_39	notype
	41	output_current_40	notype
	42	output_current_41	notype
	43	output_current_42	notype
	44	output_current_43	notype
	45	output_current_44	notype
	46	output_current_45	notype
	47	output_current_46	notype
	48	output_current_47	notype
	49	output_current_48	notype
	50	output_current_49	notype
	51	output_current_50	notype
	52	output_current_51	notype
	53	output_current_52	notype
	54	output_current_53	notype
	55	output_current_54	notype
	56	output_current_55	notype
	57	output_current_56	notype
	58	output_current_57	notype
	59	output_current_58	notype
	60	output_current_59	notype
	61	output_current_60	notype
	62	output_current_61	notype
	63	output_current_62	notype
	64	output_current_63	notype
	65	output_current_64	notype
	66	output_current_65	notype
	67	output_current_66	notype
	68	output_current_67	notype
	69	output_current_68	notype
	70	output_current_69	notype
	71	output_current_70	notype
	72	output_current_71	notype
	73	output_current_72	notype
	74	output_current_73	notype
	75	output_current_74	notype
	76	output_current_75	notype
	77	output_current_76	notype
	78	output_current_77	notype
	79	output_current_78	notype
	80	output_current_79	notype
	81	output_current_80	notype
	82	output_current_81	notype
	83	output_current_82	notype
	84	output_current_83	notype
	85	output_current_84	notype
	86	output_current_85	notype
	87	output_current_86	notype
	88	output_current_87	notype
	89	output_current_88	notype
	90	output_current_89	notype
	91	output_current_90	notype
	92	output_current_91	notype
	93	output_current_92	notype
	94	output_current_93	notype
	95	output_current_94	notype
	96	output_current_95	notype
	97	output_current_96	notype
	98	output_current_97	notype
	99	output_current_98	notype
	100	output_current_99	notype
Values:
 0	0.000000000000000e+00
	-1.604033502502751e+01
	-1.638411939594667e+01
	-1.723794790153621e+01
	-1.679930783789998e+01
	-1.666930726680275e+01
	-1.630643223773275e+01
	-1.648989144401963e+01
	-1.622727374779919e+01
	-1.624270008917288e+01
	-1.599135338062538e+01
	-1.588062279626689e+01
	-1.636662650582568e+01
	-1.653357599918504e+01
	-1.687704449576455e+01
	-1.688887603625469e+01
	-1.655086258595336e+01
	-1.614693834949948e+01
	-1.629156429852166e+01
	-1.619783943300516e+01
	-1.555624110586783e+01
	-1.574656359744870e+01
	-1.582278602383580e+01
	-1.603929430865039e+01
	-1.583170518094407e+01
	-1.599964293252620e+01
	-1.555618571489893e+01
	-1.513287160343487e+01
	-1.527622887416582e+01
	-1.491097533792932e+01
	-1.492030757196412e+01
	-1.493103093693797e+01
	-1.473254247703404e+01
	-1.506080750562846e+01
	-1.509665466261229e+01
	-1.487166285138835e+01
	-1.530649458083898e+01
	-1.507906767187039e+01
	-1.527772618270678e+01
	-1.499342967711787e+01
	-1.533827942922314e+01
	-1.552013563314523e+01
	-1.527722130446938e+01
	-1.555294149821326e+01
	-1.570387269559010e+01
	-1.563563830162504e+01
	-1.518256772641155e+01
	-1.480796398774138e+01
	-1.501834399685941e+01
	-1.513082664517385e+01
	-1.533242133848163e+01
	-1.525107740359235e+01
	-1.525964801986581e+01
	-1.577297221287264e+01
	-1.640144301444749e+01
	-1.692855978679112e+01
	-1.680510199333323e+01
	-1.650769039279529e+01
	-1.630387990724256e+01
	-1.609555151932398e+01
	-1.622927154948238e+01
	-1.698435602150850e+01
	-1.618426232082225e+01
	-1.611883617957649e+01
	-1.624672598456304e+01
	-1.631703971521926e+01
	-1.624855743063858e+01
	-1.623769755199507e+01
	-1.628932731858410e+01
	-1.586213417866933e+01
	-1.650019864785071e+01
	-1.656777228613029e+01
	-1.653731993061306e+01
	-1.690755671413946e+01
	-1.678331078624001e+01
	-1.672209227818481e+01
	-1.659868111048962e+01
	-1.705334965851475e+01
	-1.693947578552452e+01
	-1.675066222051541e+01
	-1.664884679919709e+01
	-1.701821027495942e+01
	-1.753270154230984e+01
	-1.770877309620054e+01
	-1.765742887083079e+01
	-1.786034132562064e+01
	-1.804892867919432e+01
	-1.821457896394940e+01
	-1.841637289244868e+01
	-1.854092901626593e+01
	-1.839369175328029e+01
	-1.803074687594349e+01
	-1.787858766785534e+01
	-1.704579194323410e+01
	-1.688085438124236e+01
	-1.672668738812373e+01
	-1.645115885129497e+01
	-1.647829170927301e+01
	-1.630070162890553e+01
	-1.637606831785537e+01
	-1.639206543692975e+01

 1	1.000000000000000e-01
	-1.604033361335097e+01
	-1.638411797989508e+01
	-1.723794647425026e+01
	-1.679930641631447e+01
	-1.666930584690147e+01
	-1.630643082259505e+01
	-1.648989002651171e+01
	-1.622727233352746e+01
	-1.624269867486040e+01
	-1.599135196957591e+01
	-1.588062138658028e+01
	-1.636662508989524e+01
	-1.653357458116081e+01
	-1.687704307324219e+01
	-1.688887461363381e+01
	-1.655086116759282e+01
	-1.614693693637892e+01
	-1.629156288358089e+01
	-1.619783801933014e+01
	-1.555623970057758e+01
	-1.574656218965341e+01
	-1.582278461504740e+01
	-1.603929289714866e+01
	-1.583170377222796e+01
	-1.599964152169676e+01
	-1.555618430970204e+01
	-1.513287020376414e+01
	-1.527622747264901e+01
	-1.491097394088166e+01
	-1.492030617484039e+01
	-1.493102953978960e+01
	-1.473254108243417e+01
	-1.506080610684317e+01
	-1.509665326330796e+01
	-1.487166145512868e+01
	-1.530649317882396e+01
	-1.507906627268619e+01
	-1.527772478107624e+01
	-1.499342827917011e+01
	-1.533827802672260e+01
	-1.552013422819021e+01
	-1.527721990257460e+01
	-1.555294009294809e+01
	-1.570387128836681e+01
	-1.563563689519341e+01
	-1.518256632576743e+01
	-1.480796259182099e+01
	-1.501834259817061e+01
	-1.513082524033087e+01
	-1.533241993585042e+01
	-1.525107600201016e+01
	-1.525964661807392e+01
	-1.577297080462226e+01
	-1.640144159813821e+01
	-1.692855836357585e+01
	-1.680510057174703e+01
	-1.650768897514728e+01
	-1.630387849230928e+01
	-1.609555010705574e+01
	-1.622927013546505e+01
	-1.698435459762241e+01
	-1.618426090750605e+01
	-1.611883476718753e+01
	-1.624672457058250e+01
	-1.631703830041582e+01
	-1.624855601678603e+01
	-1.623769613828723e+01
	-1.628932590417759e+01
	-1.586213276983607e+01
	-1.650019723073428e+01
	-1.656777086807011e+01
	-1.653731851303691e+01
	-1.690755529173236e+01
	-1.678330936551803e+01
	-1.672209085824776e+01
	-1.659867969206290e+01
	-1.705334823416013e+01
	-1.693947436262732e+01
	-1.675066079995615e+01
	-1.664884537989017e+01
	-1.701820885086686e+01
	-1.753270011157965e+01
	-1.770877166314965e+01
	-1.765742743836110e+01
	-1.786033989039232e+01
	-1.804892724133455e+01
	-1.821457752387974e+01
	-1.841637144975448e+01
	-1.854092757197591e+01
	-1.839369031103011e+01
	-1.803074543855044e+01
	-1.787858623235354e+01
	-1.704579051854498e+01
	-1.688085295871868e+01
	-1.672668596763987e+01
	-1.645115743452442e+01
	-1.647829029212701e+01
	-1.630070021415446e+01
	-1.637606690201159e+01
	-1.639206402081463e+01

 2	2.000000000000000e-01
	-1.604033102162565e+01
	-1.638411533405024e+01
	-1.723794368747597e+01
	-1.679930370345879e+01
	-1.666930315540623e+01
	-1.630642818929970e+01
	-1.648988736393088e+01
	-1.622726971305909e+01
	-1.624269605161170e+01
	-1.599134938541771e+01
	-1.588061881952618e+01
	-1.636662244707779e+01
	-1.653357191143338e+01
	-1.687704034731170e+01
	-1.688887188558630e+01
	-1.655085849534122e+01
	-1.614693432824410e+01
	-1.629156025263134e+01
	-1.619783540300411e+01
	-1.555623718185063e+01
	-1.574655964258195e+01
	-1.582278205646851e+01
	-1.603929030524774e+01
	-1.583170121191616e+01
	-1.599963893557236e+01
	-1.555618179080953e+01
	-1.513286774636867e+01
	-1.527622499463457e+01
	-1.491097151527406e+01
	-1.492030374785176e+01
	-1.493102711111304e+01
	-1.473253868140458e+01
	-1.506080365978421e+01
	-1.509665081124447e+01
	-1.487165903457043e+01
	-1.530649069661557e+01
	-1.507906382330799e+01
	-1.527772230300670e+01
	-1.499342584170249e+01
	-1.533827554004162e+01
	-1.552013171505832e+01
	-1.527721742506071e+01
	-1.555293757475247e+01
	-1.570386874768388e+01
	-1.563563436488571e+01
	-1.518256386183112e+01
	-1.480796018088956e+01
	-1.501834015787856e+01
	-1.513082278393476e+01
	-1.533241745038222e+01
	-1.525107352831599e+01
	-1.525964414331896e+01
	-1.577296825379660e+01
	-1.640143894961362e+01
	-1.692855562911123e+01
	-1.680509785774376e+01
	-1.650768630949165e+01
	-1.630387585902633e+01
	-1.609554750651138e+01
	-1.622926751405555e+01
	-1.698435185366155e+01
	-1.618425829290418e+01
	-1.611883216262648e+01
	-1.624672194584595e+01
	-1.631703566435838e+01
	-1.624855339141486e+01
	-1.623769351462151e+01
	-1.628932327243091e+01
	-1.586213020433782e+01
	-1.650019456524994e+01
	-1.656776819183079e+01
	-1.653731584150423e+01
	-1.690755255937615e+01
	-1.678330665364334e+01
	-1.672208815648337e+01
	-1.659867701071597e+01
	-1.705334547740927e+01
	-1.693947162512313e+01
	-1.675065809412876e+01
	-1.664884269093511e+01
	-1.701820610058883e+01
	-1.753269727225893e+01
	-1.770876879254465e+01
	-1.765742457723501e+01
	-1.786033699302387e+01
	-1.804892430989922e+01
	-1.821457456170537e+01
	-1.841636844926572e+01
	-1.854092454739429e+01
	-1.839368731436407e+01
	-1.803074250971307e+01
	-1.787858333177120e+01
	-1.704578776422997e+01
	-1.688085023202144e+01
	-1.672668326635181e+01
	-1.645115477761760e+01
	-1.647828763091539e+01
	-1.630069758105742e+01
	-1.637606425721246e+01
	-1.639206137362043e+01

 3	3.000000000000000e-01
	-1.604027684246748e+01
	-1.638405884858427e+01
	-1.723788118977609e+01
	-1.679924436826539e+01
	-1.666924473198495e+01
	-1.630637224325037e+01
	-1.648983017032914e+01
	-1.622721432131609e+01
	-1.624264053307578e+01
	-1.599129552799990e+01
	-1.588056569130463e+01
	-1.636656609690148e+01
	-1.653351441044672e+01
	-1.687698044921631e+01
	-1.688881189353970e+01
	-1.655080089280665e+01
	-1.614687945513067e+01
	-1.629150440658652e+01
	-1.619778017581634e+01
	-1.555618609064067e+01
	-1.574650735368295e+01
	-1.582272927999849e+01
	-1.603923610995786e+01
	-1.583164835159950e+01
	-1.599958497718599e+01
	-1.555613068790268e+01
	-1.513281923828097e+01
	-1.527617561650835e+01
	-1.491092435854483e+01
	-1.492025653083199e+01
	-1.493097981709772e+01
	-1.473249255079466e+01
	-1.506075558961885e+01
	-1.509660253316681e+01
	-1.487161207594330e+01
	-1.530644114692336e+01
	-1.507901566352841e+01
	-1.527767292711399e+01
	-1.499337817732090e+01
	-1.533822580550795e+01
	-1.552008086725946e+01
	-1.527716808665407e+01
	-1.555288650702601e+01
	-1.570381672844865e+01
	-1.563558278983348e+01
	-1.518251509511542e+01
	-1.480791365198650e+01
	-1.501829239621147e+01
	-1.513077433981686e+01
	-1.533236777729076e+01
	-1.525102435254394e+01
	-1.525959492815779e+01
	-1.577291581129699e+01
	-1.640138235205969e+01
	-1.692849536771570e+01
	-1.680503846924057e+01
	-1.650762898004124e+01
	-1.630381990448295e+01
	-1.609549294552090e+01
	-1.622921206766188e+01
	-1.698429118314688e+01
	-1.618420312956278e+01
	-1.611877742190024e+01
	-1.624666634355831e+01
	-1.631697957568308e+01
	-1.624849775407866e+01
	-1.623763794963737e+01
	-1.628926736463891e+01
	-1.586207710972773e+01
	-1.650013721931587e+01
	-1.656771039134155e+01
	-1.653725823655572e+01
	-1.690749235859148e+01
	-1.678324732472651e+01
	-1.672202925916424e+01
	-1.659861899039990e+01
	-1.705328423598344e+01
	-1.693941120857595e+01
	-1.675059903756641e+01
	-1.664878435879044e+01
	-1.701814514692178e+01
	-1.753263249811810e+01
	-1.770870267599462e+01
	-1.765735887347201e+01
	-1.786026973668714e+01
	-1.804885559525628e+01
	-1.821450452461648e+01
	-1.841629675759957e+01
	-1.854085181283833e+01
	-1.839361577962164e+01
	-1.803067389397019e+01
	-1.787851593877955e+01
	-1.704572665099910e+01
	-1.688079029846359e+01
	-1.672662441633708e+01
	-1.645109781331306e+01
	-1.647823048466570e+01
	-1.630064162652765e+01
	-1.637600781084538e+01
	-1.639200482902153e+01

 4	4.000000000000000e-01
	-1.603783560138543e+01
	-1.638150930965597e+01
	-1.723504937212170e+01
	-1.679656104430556e+01
	-1.666660422007316e+01
	-1.630384804723948e+01
	-1.648724739662259e+01
	-1.622471617678011e+01
	-1.624013640894080e+01
	-1.598886939430330e+01
	-1.587817380368297e+01
	-1.636402292837897e+01
	-1.653091720214673e+01
	-1.687427068139461e+01
	-1.688609770408678e+01
	-1.654819893537083e+01
	-1.614440564305376e+01
	-1.628898490566358e+01
	-1.619528972258257e+01
	-1.555388980365548e+01
	-1.574415484580586e+01
	-1.582035388216173e+01
	-1.603679408584356e+01
	-1.582926898775957e+01
	-1.599715405026769e+01
	-1.555383383822541e+01
	-1.513064419477316e+01
	-1.527395972894808e+01
	-1.490881278677241e+01
	-1.491814212241953e+01
	-1.492886177738895e+01
	-1.473042912520465e+01
	-1.505860111008441e+01
	-1.509443830182016e+01
	-1.486950976254600e+01
	-1.530421722086733e+01
	-1.507685700104998e+01
	-1.527545715805140e+01
	-1.499124275140336e+01
	-1.533599321444464e+01
	-1.551779602871342e+01
	-1.527495411783564e+01
	-1.555059132637922e+01
	-1.570147687826135e+01
	-1.563326380661260e+01
	-1.518032795986716e+01
	-1.480583157966622e+01
	-1.501615246493786e+01
	-1.512860236076114e+01
	-1.533013810086279e+01
	-1.524881802231252e+01
	-1.525738676441607e+01
	-1.577055611025479e+01
	-1.639882755684809e+01
	-1.692576854477856e+01
	-1.680235262910177e+01
	-1.650503981275943e+01
	-1.630129528177286e+01
	-1.609303375719900e+01
	-1.622671131132430e+01
	-1.698154513976801e+01
	-1.618171564385244e+01
	-1.611630976556664e+01
	-1.624415822495229e+01
	-1.631444860498192e+01
	-1.624598796491426e+01
	-1.623513155669394e+01
	-1.628674488072970e+01
	-1.585968670251610e+01
	-1.649754720541470e+01
	-1.656509905146696e+01
	-1.653465606273475e+01
	-1.690476828809084e+01
	-1.678056418242709e+01
	-1.671936638407348e+01
	-1.659599731223349e+01
	-1.705051130804579e+01
	-1.693667701923897e+01
	-1.674792872941157e+01
	-1.664614807795387e+01
	-1.701538576667495e+01
	-1.752969370369103e+01
	-1.770570084518024e+01
	-1.765437644537089e+01
	-1.785721441697951e+01
	-1.804573182009481e+01
	-1.821131865076677e+01
	-1.841303317396837e+01
	-1.853753924270258e+01
	-1.839035953711346e+01
	-1.802755471850006e+01
	-1.787545420791447e+01
	-1.704295981907444e+01
	-1.687807885679300e+01
	-1.672396384707879e+01
	-1.644852576715245e+01
	-1.647564989932195e+01
	-1.629811698096750e+01
	-1.637346009096575e+01
	-1.638945250816004e+01

 5	5.000000000000000e-01
	-1.592492336422560e+01
	-1.626357787449984e+01
	-1.710404197868752e+01
	-1.667243109551900e+01
	-1.654445752498283e+01
	-1.618709096741395e+01
	-1.636777589459609e+01
	-1.610916634526922e+01
	-1.612430954589762e+01
	-1.587665745724118e+01
	-1.576754942824897e+01
	-1.624638662142550e+01
	-1.641077654319337e+01
	-1.674891591839595e+01
	-1.676053819514204e+01
	-1.642783815983394e+01
	-1.602998364153615e+01
	-1.617244541165553e+01
	-1.608009649120972e+01
	-1.544769825424964e+01
	-1.563535632329585e+01
	-1.571049407665193e+01
	-1.592384564024855e+01
	-1.571922539870375e+01
	-1.588472009738296e+01
	-1.544761622883708e+01
	-1.503007619166357e+01
	-1.517149708040647e+01
	-1.481118947887606e+01
	-1.482038720537155e+01
	-1.483093839675033e+01
	-1.463503994036365e+01
	-1.495898709106793e+01
	-1.499437186004393e+01
	-1.477231609169924e+01
	-1.520138168288412e+01
	-1.497704888662238e+01
	-1.517299997953073e+01
	-1.489251270505884e+01
	-1.523275574338805e+01
	-1.541213534531173e+01
	-1.517258036528319e+01
	-1.544445107372211e+01
	-1.559326526086809e+01
	-1.552601973660105e+01
	-1.507919894269190e+01
	-1.470957705163857e+01
	-1.491721330363459e+01
	-1.502817641693432e+01
	-1.522703575780187e+01
	-1.514679858385558e+01
	-1.515528224829933e+01
	-1.566142402198907e+01
	-1.628065252496614e+01
	-1.679962381598227e+01
	-1.667810619337260e+01
	-1.638527213339329e+01
	-1.618451853957141e+01
	-1.597928968658056e+01
	-1.611104060596482e+01
	-1.685451027523582e+01
	-1.606666006162301e+01
	-1.600217330005496e+01
	-1.612814648177905e+01
	-1.619737788754496e+01
	-1.612989890023286e+01
	-1.611919989047854e+01
	-1.617006748415089e+01
	-1.574913126477069e+01
	-1.637774062963174e+01
	-1.644430398696061e+01
	-1.641428572964834e+01
	-1.677875155169157e+01
	-1.665644323069053e+01
	-1.659618425181395e+01
	-1.647472360291757e+01
	-1.692223181740326e+01
	-1.681019155650209e+01
	-1.662440204872744e+01
	-1.652419766070476e+01
	-1.688773347029176e+01
	-1.739373441009529e+01
	-1.756682401391063e+01
	-1.751639744604787e+01
	-1.771586206951771e+01
	-1.790121192518621e+01
	-1.806392600144930e+01
	-1.826204638663011e+01
	-1.838428722881153e+01
	-1.823971251750692e+01
	-1.788324799122091e+01
	-1.773380515537678e+01
	-1.691496219416685e+01
	-1.675264661084905e+01
	-1.660088810550621e+01
	-1.632955150145753e+01
	-1.635627994827574e+01
	-1.618133927514522e+01
	-1.625561302024302e+01
	-1.627139218402996e+01

 6	6.000000000000000e-01
	-1.206469553139790e+01
	-1.224758010725477e+01
	-1.268537659998336e+01
	-1.246436943960270e+01
	-1.239747496002918e+01
	-1.220711826711177e+01
	-1.230370974050241e+01
	-1.216604319681973e+01
	-1.217324604064448e+01
	-1.203826602960827e+01
	-1.197852760418617e+01
	-1.223906344909758e+01
	-1.232622980351193e+01
	-1.250355879252995e+01
	-1.250917290908394e+01
	-1.233598862813818e+01
	-1.212242050587569e+01
	-1.219923072317952e+01
	-1.214897310890305e+01
	-1.179864347089842e+01
	-1.190417910469843e+01
	-1.194601885978582e+01
	-1.206314201778352e+01
	-1.194974609620834e+01
	-1.204072803017861e+01
	-1.179808350423851e+01
	-1.155929557011781e+01
	-1.164070006088422e+01
	-1.143321283967636e+01
	-1.143836656587301e+01
	-1.144394080672597e+01
	-1.132884745533888e+01
	-1.151834296658485e+01
	-1.153916239746309e+01
	-1.140897891158681e+01
	-1.165840371891035e+01
	-1.152967840807766e+01
	-1.164205231077241e+01
	-1.147985636962844e+01
	-1.167678139204192e+01
	-1.177930510609634e+01
	-1.164329483736219e+01
	-1.179693145949677e+01
	-1.188057607878126e+01
	-1.184339781859403e+01
	-1.158944778649342e+01
	-1.137459098804027e+01
	-1.149645732097711e+01
	-1.156043534736603e+01
	-1.167460907523543e+01
	-1.162863905546785e+01
	-1.163406386623146e+01
	-1.191934995071429e+01
	-1.225694621812052e+01
	-1.252990728568103e+01
	-1.246681571220967e+01
	-1.231243682922102e+01
	-1.220466703001031e+01
	-1.209364189258136e+01
	-1.216533552825397e+01
	-1.255776658392240e+01
	-1.214057737377546e+01
	-1.210503562051117e+01
	-1.217295531849273e+01
	-1.220969821953039e+01
	-1.217295469291857e+01
	-1.216715715757149e+01
	-1.219475936183395e+01
	-1.196471236616641e+01
	-1.230563882594759e+01
	-1.234135590950584e+01
	-1.232487085119305e+01
	-1.251551254811437e+01
	-1.245169989289772e+01
	-1.242029230731443e+01
	-1.235717234725380e+01
	-1.258947838138369e+01
	-1.253222555389584e+01
	-1.243672587669129e+01
	-1.238472881501747e+01
	-1.257320474220939e+01
	-1.282668546869740e+01
	-1.291143446236057e+01
	-1.288761659984138e+01
	-1.298477837419022e+01
	-1.307408599121610e+01
	-1.315056966934492e+01
	-1.324163419585344e+01
	-1.329678408823192e+01
	-1.323027649179160e+01
	-1.306382602734154e+01
	-1.299361395268831e+01
	-1.258873360780622e+01
	-1.250514877994282e+01
	-1.242600284385195e+01
	-1.228189071322594e+01
	-1.229627116615791e+01
	-1.220206741233048e+01
