Title: four transistor current mirror simulation testbench (dc)
Date: Fri Sep 29 11:07:33  2017
Plotname: DC transfer characteristic
Flags: real
No. Variables: 8
No. Points: 51
Variables:
	0	n2	voltage
	1	n1	voltage
	2	n3	voltage
	3	n4	voltage
	4	n_pos	voltage
	5	v-sweep	voltage
	6	i(v1)	current
	7	i(v2)	current
Values:
 0	0.000000000000000e+00
	1.230586941068916e-03
	6.271661513838741e-01
	3.741981438406120e-01
	5.000000000000000e+00
	0.000000000000000e+00
	-5.000000000000000e-05
	1.604033502502790e-05

 1	1.000000000000000e-01
	1.012305845973235e-01
	7.271661509257062e-01
	4.726823566010801e-01
	5.000000000000000e+00
	1.000000000000000e-01
	-5.000000000000000e-05
	1.604033361335050e-05

 2	2.000000000000000e-01
	2.012305794477550e-01
	8.271661499717119e-01
	5.683394831328791e-01
	5.000000000000000e+00
	2.000000000000000e-01
	-5.000000000000000e-05
	1.604033102162810e-05

 3	3.000000000000000e-01
	3.012304542012467e-01
	9.271661261929315e-01
	6.217557144395406e-01
	5.000000000000000e+00
	3.000000000000000e-01
	-5.000000000000000e-05
	1.604027684247013e-05

 4	4.000000000000000e-01
	4.012248037686018e-01
	1.027165024284952e+00
	6.260597125952652e-01
	5.000000000000000e+00
	4.000000000000000e-01
	-5.000000000000000e-05
	1.603783560138761e-05

 5	5.000000000000000e-01
	5.009637998698820e-01
	1.127113824795064e+00
	6.260241194263639e-01
	5.000000000000000e+00
	5.000000000000000e-01
	-5.000000000000000e-05
	1.592492336422909e-05

 6	6.000000000000000e-01
	5.929350416852592e-01
	1.225310887514267e+00
	6.325803985848367e-01
	5.000000000000000e+00
	6.000000000000000e-01
	-5.000000000000000e-05
	1.206469553139987e-05

 7	7.000000000000000e-01
	6.491535446904073e-01
	1.305448073271078e+00
	6.565132288482177e-01
	5.000000000000000e+00
	7.000000000000000e-01
	-5.000000000000000e-05
	-1.861501925253588e-05

 8	7.999999999999999e-01
	6.655592563349076e-01
	1.331296779266699e+00
	6.659629536477086e-01
	5.000000000000000e+00
	7.999999999999999e-01
	-5.000000000000000e-05
	-4.787002686936843e-05

 9	8.999999999999999e-01
	6.659630006855481e-01
	1.332154821813525e+00
	6.664184792887120e-01
	5.000000000000000e+00
	8.999999999999999e-01
	-5.000000000000000e-05
	-4.990116600113303e-05

 10	9.999999999999999e-01
	6.657115947829796e-01
	1.331810190200510e+00
	6.663254877751885e-01
	5.000000000000000e+00
	9.999999999999999e-01
	-5.000000000000000e-05
	-4.997994552770857e-05

 11	1.100000000000000e+00
	6.657074277934233e-01
	1.331750063831405e+00
	6.662695369969039e-01
	5.000000000000000e+00
	1.100000000000000e+00
	-5.000000000000000e-05
	-4.998796037624408e-05

 12	1.200000000000000e+00
	6.657069234632601e-01
	1.331702173328877e+00
	6.662221767322651e-01
	5.000000000000000e+00
	1.200000000000000e+00
	-5.000000000000000e-05
	-4.999036582178268e-05

 13	1.300000000000000e+00
	6.657073943819939e-01
	1.331655272824992e+00
	6.661748285265506e-01
	5.000000000000000e+00
	1.300000000000000e+00
	-5.000000000000000e-05
	-4.999206140618404e-05

 14	1.400000000000000e+00
	6.657078369040070e-01
	1.331608419960957e+00
	6.661275562978600e-01
	5.000000000000000e+00
	1.400000000000000e+00
	-5.000000000000000e-05
	-4.999365170710125e-05

 15	1.500000000000000e+00
	6.657082739928540e-01
	1.331561646665697e+00
	6.660803690251369e-01
	5.000000000000000e+00
	1.500000000000000e+00
	-5.000000000000000e-05
	-4.999522201146589e-05

 16	1.600000000000000e+00
	6.657087089619005e-01
	1.331514957433639e+00
	6.660332678920561e-01
	5.000000000000000e+00
	1.600000000000000e+00
	-5.000000000000000e-05
	-4.999678459987434e-05

 17	1.700000000000000e+00
	6.657091423236892e-01
	1.331468352688172e+00
	6.659862528099744e-01
	5.000000000000000e+00
	1.700000000000000e+00
	-5.000000000000000e-05
	-4.999834136159898e-05

 18	1.800000000000000e+00
	6.657095741433019e-01
	1.331421832205111e+00
	6.659393234898118e-01
	5.000000000000000e+00
	1.800000000000000e+00
	-5.000000000000000e-05
	-4.999989253611218e-05

 19	1.900000000000001e+00
	6.657100044372342e-01
	1.331375395691475e+00
	6.658924796222718e-01
	5.000000000000000e+00
	1.900000000000001e+00
	-5.000000000000000e-05
	-5.000143818365404e-05

 20	2.000000000000000e+00
	6.657104332156735e-01
	1.331329042846900e+00
	6.658457208969367e-01
	5.000000000000000e+00
	2.000000000000000e+00
	-5.000000000000000e-05
	-5.000297834129213e-05

 21	2.100000000000001e+00
	6.657108604874197e-01
	1.331282773370747e+00
	6.657990470045471e-01
	5.000000000000000e+00
	2.100000000000001e+00
	-5.000000000000000e-05
	-5.000451304094192e-05

 22	2.200000000000001e+00
	6.657112862608281e-01
	1.331236586963416e+00
	6.657524576373022e-01
	5.000000000000000e+00
	2.200000000000001e+00
	-5.000000000000000e-05
	-5.000604231288472e-05

 23	2.300000000000001e+00
	6.657117105440095e-01
	1.331190483326677e+00
	6.657059524889977e-01
	5.000000000000000e+00
	2.300000000000001e+00
	-5.000000000000000e-05
	-5.000756618659003e-05

 24	2.400000000000001e+00
	6.657121333450142e-01
	1.331144462163891e+00
	6.656595312551152e-01
	5.000000000000000e+00
	2.400000000000001e+00
	-5.000000000000000e-05
	-5.000908469120120e-05

 25	2.500000000000001e+00
	6.657125546717980e-01
	1.331098523179964e+00
	6.656131936327561e-01
	5.000000000000000e+00
	2.500000000000001e+00
	-5.000000000000000e-05
	-5.001059785548688e-05

 26	2.600000000000001e+00
	6.657129745322169e-01
	1.331052666081308e+00
	6.655669393206161e-01
	5.000000000000000e+00
	2.600000000000001e+00
	-5.000000000000000e-05
	-5.001210570797981e-05

 27	2.700000000000001e+00
	6.657133929340960e-01
	1.331006890575993e+00
	6.655207680191049e-01
	5.000000000000000e+00
	2.700000000000001e+00
	-5.000000000000000e-05
	-5.001360827707393e-05

 28	2.800000000000001e+00
	6.657138098851901e-01
	1.330961196373580e+00
	6.654746794301710e-01
	5.000000000000000e+00
	2.800000000000001e+00
	-5.000000000000000e-05
	-5.001510559082320e-05

 29	2.900000000000001e+00
	6.657142253932000e-01
	1.330915583185173e+00
	6.654286732573734e-01
	5.000000000000000e+00
	2.900000000000001e+00
	-5.000000000000000e-05
	-5.001659767712892e-05

 30	3.000000000000001e+00
	6.657146394657598e-01
	1.330870050723428e+00
	6.653827492058780e-01
	5.000000000000000e+00
	3.000000000000001e+00
	-5.000000000000000e-05
	-5.001808456365645e-05

 31	3.100000000000001e+00
	6.657150521104649e-01
	1.330824598702570e+00
	6.653369069824702e-01
	5.000000000000000e+00
	3.100000000000001e+00
	-5.000000000000000e-05
	-5.001956627796707e-05

 32	3.200000000000002e+00
	6.657154633348370e-01
	1.330779226838268e+00
	6.652911462954253e-01
	5.000000000000000e+00
	3.200000000000002e+00
	-5.000000000000000e-05
	-5.002104284732371e-05

 33	3.300000000000002e+00
	6.657158731463630e-01
	1.330733934847726e+00
	6.652454668546250e-01
	5.000000000000000e+00
	3.300000000000002e+00
	-5.000000000000000e-05
	-5.002251429880886e-05

 34	3.400000000000002e+00
	6.657162815524621e-01
	1.330688722449665e+00
	6.651998683715065e-01
	5.000000000000000e+00
	3.400000000000002e+00
	-5.000000000000000e-05
	-5.002398065939401e-05

 35	3.500000000000002e+00
	6.657166885605144e-01
	1.330643589364276e+00
	6.651543505590328e-01
	5.000000000000000e+00
	3.500000000000002e+00
	-5.000000000000000e-05
	-5.002544195576614e-05

 36	3.600000000000002e+00
	6.657170941778457e-01
	1.330598535313228e+00
	6.651089131316906e-01
	5.000000000000000e+00
	3.600000000000002e+00
	-5.000000000000000e-05
	-5.002689821448734e-05

 37	3.700000000000002e+00
	6.657174984117030e-01
	1.330553560019598e+00
	6.650635558054389e-01
	5.000000000000000e+00
	3.700000000000002e+00
	-5.000000000000000e-05
	-5.002834946185602e-05

 38	3.800000000000002e+00
	6.657179012693411e-01
	1.330508663208043e+00
	6.650182782978430e-01
	5.000000000000000e+00
	3.800000000000002e+00
	-5.000000000000000e-05
	-5.002979572409426e-05

 39	3.900000000000002e+00
	6.657183027579026e-01
	1.330463844604537e+00
	6.649730803278682e-01
	5.000000000000000e+00
	3.900000000000002e+00
	-5.000000000000000e-05
	-5.003123702716739e-05

 40	4.000000000000002e+00
	6.657187028845136e-01
	1.330419103936557e+00
	6.649279616160026e-01
	5.000000000000000e+00
	4.000000000000002e+00
	-5.000000000000000e-05
	-5.003267339686035e-05

 41	4.100000000000001e+00
	6.657191016562491e-01
	1.330374440933004e+00
	6.648829218842141e-01
	5.000000000000000e+00
	4.100000000000001e+00
	-5.000000000000000e-05
	-5.003410485885399e-05

 42	4.200000000000001e+00
	6.657194990801131e-01
	1.330329855324137e+00
	6.648379608558933e-01
	5.000000000000000e+00
	4.200000000000001e+00
	-5.000000000000000e-05
	-5.003553143853078e-05

 43	4.300000000000001e+00
	6.657198951630888e-01
	1.330285346841680e+00
	6.647930782559323e-01
	5.000000000000000e+00
	4.300000000000001e+00
	-5.000000000000000e-05
	-5.003695316114829e-05

 44	4.400000000000000e+00
	6.657202899121046e-01
	1.330240915218724e+00
	6.647482738106214e-01
	5.000000000000000e+00
	4.400000000000000e+00
	-5.000000000000000e-05
	-5.003837005183920e-05

 45	4.500000000000000e+00
	6.657206833340186e-01
	1.330196560189757e+00
	6.647035472477243e-01
	5.000000000000000e+00
	4.500000000000000e+00
	-5.000000000000000e-05
	-5.003978213554189e-05

 46	4.600000000000000e+00
	6.657210754356685e-01
	1.330152281490630e+00
	6.646588982963931e-01
	5.000000000000000e+00
	4.600000000000000e+00
	-5.000000000000000e-05
	-5.004118943697270e-05

 47	4.699999999999999e+00
	6.657214662238337e-01
	1.330108078858578e+00
	6.646143266872246e-01
	5.000000000000000e+00
	4.699999999999999e+00
	-5.000000000000000e-05
	-5.004259198072308e-05

 48	4.799999999999999e+00
	6.657218557052478e-01
	1.330063952032155e+00
	6.645698321521738e-01
	5.000000000000000e+00
	4.799999999999999e+00
	-5.000000000000000e-05
	-5.004398979119017e-05

 49	4.899999999999999e+00
	6.657222438865982e-01
	1.330019900751296e+00
	6.645254144246188e-01
	5.000000000000000e+00
	4.899999999999999e+00
	-5.000000000000000e-05
	-5.004538289257684e-05

 50	4.999999999999998e+00
	6.657226307745344e-01
	1.329975924757294e+00
	6.644810732393425e-01
	5.000000000000000e+00
	4.999999999999998e+00
	-5.000000000000000e-05
	-5.004677130909983e-05

