Title: * four transistor current mirror simulation testbench (dc)
Date: Thu Sep 28 11:20:36  2017
Plotname: DC transfer characteristic
Flags: real
No. Variables: 8
No. Points: 51
Variables:
	0	n2	voltage
	1	n1	voltage
	2	n3	voltage
	3	n4	voltage
	4	n_pos	voltage
	5	v-sweep	voltage
	6	i(v1)	current
	7	i(v2)	current
Values:
 0	0.000000000000000e+00
	1.230586941068985e-03
	6.271661513838737e-01
	3.741981462187155e-01
	5.000000000000000e+00
	0.000000000000000e+00
	-5.000000000000000e-05
	1.604033502502750e-05

 1	1.000000000000000e-01
	1.012305845973265e-01
	7.271661509257057e-01
	4.726823518661357e-01
	5.000000000000000e+00
	1.000000000000000e-01
	-5.000000000000000e-05
	1.604033361335097e-05

 2	2.000000000000000e-01
	2.012305794477489e-01
	8.271661499717112e-01
	5.683394828724748e-01
	5.000000000000000e+00
	2.000000000000000e-01
	-5.000000000000000e-05
	1.604033102162565e-05

 3	3.000000000000000e-01
	3.012304542012436e-01
	9.271661261929275e-01
	6.217557103101453e-01
	5.000000000000000e+00
	3.000000000000000e-01
	-5.000000000000000e-05
	1.604027684246748e-05

 4	4.000000000000000e-01
	4.012248037685949e-01
	1.027165024284954e+00
	6.260597130638839e-01
	5.000000000000000e+00
	4.000000000000000e-01
	-5.000000000000000e-05
	1.603783560138543e-05

 5	5.000000000000000e-01
	5.009637998698632e-01
	1.127113824795070e+00
	6.260241185908010e-01
	5.000000000000000e+00
	5.000000000000000e-01
	-5.000000000000000e-05
	1.592492336422560e-05

 6	6.000000000000000e-01
	5.929350416852530e-01
	1.225310887514275e+00
	6.325803985844523e-01
	5.000000000000000e+00
	6.000000000000000e-01
	-5.000000000000000e-05
	1.206469553139790e-05

 7	7.000000000000000e-01
	6.491535446904071e-01
	1.305448073271076e+00
	6.565132288483523e-01
	5.000000000000000e+00
	7.000000000000000e-01
	-5.000000000000000e-05
	-1.861501925253419e-05

 8	7.999999999999999e-01
	6.655592563349071e-01
	1.331296779266704e+00
	6.659629536477717e-01
	5.000000000000000e+00
	7.999999999999999e-01
	-5.000000000000000e-05
	-4.787002686937738e-05

 9	8.999999999999999e-01
	6.659630006855518e-01
	1.332154821813540e+00
	6.664184792887213e-01
	5.000000000000000e+00
	8.999999999999999e-01
	-5.000000000000000e-05
	-4.990116600115558e-05

 10	9.999999999999999e-01
	6.657115947829718e-01
	1.331810190200496e+00
	6.663254877751781e-01
	5.000000000000000e+00
	9.999999999999999e-01
	-5.000000000000000e-05
	-4.997994552768775e-05

 11	1.100000000000000e+00
	6.657074277934205e-01
	1.331750063831394e+00
	6.662695369968958e-01
	5.000000000000000e+00
	1.100000000000000e+00
	-5.000000000000000e-05
	-4.998796037623020e-05

 12	1.200000000000000e+00
	6.657069234632566e-01
	1.331702173328871e+00
	6.662221767322599e-01
	5.000000000000000e+00
	1.200000000000000e+00
	-5.000000000000000e-05
	-4.999036582177921e-05

 13	1.300000000000000e+00
	6.657073943819931e-01
	1.331655272824993e+00
	6.661748285265520e-01
	5.000000000000000e+00
	1.300000000000000e+00
	-5.000000000000000e-05
	-4.999206140618057e-05

 14	1.400000000000000e+00
	6.657078369040124e-01
	1.331608419960975e+00
	6.661275562978757e-01
	5.000000000000000e+00
	1.400000000000000e+00
	-5.000000000000000e-05
	-4.999365170713247e-05

 15	1.500000000000000e+00
	6.657082739928625e-01
	1.331561646665720e+00
	6.660803690251534e-01
	5.000000000000000e+00
	1.500000000000000e+00
	-5.000000000000000e-05
	-4.999522201149365e-05

 16	1.600000000000000e+00
	6.657087089618974e-01
	1.331514957433642e+00
	6.660332678920635e-01
	5.000000000000000e+00
	1.600000000000000e+00
	-5.000000000000000e-05
	-4.999678459988475e-05

 17	1.700000000000000e+00
	6.657091423236894e-01
	1.331468352688180e+00
	6.659862528099825e-01
	5.000000000000000e+00
	1.700000000000000e+00
	-5.000000000000000e-05
	-4.999834136160939e-05

 18	1.800000000000000e+00
	6.657095741433083e-01
	1.331421832205122e+00
	6.659393234898178e-01
	5.000000000000000e+00
	1.800000000000000e+00
	-5.000000000000000e-05
	-4.999989253612953e-05

 19	1.900000000000001e+00
	6.657100044372455e-01
	1.331375395691493e+00
	6.658924796222844e-01
	5.000000000000000e+00
	1.900000000000001e+00
	-5.000000000000000e-05
	-5.000143818366445e-05

 20	2.000000000000000e+00
	6.657104332156819e-01
	1.331329042846916e+00
	6.658457208969457e-01
	5.000000000000000e+00
	2.000000000000000e+00
	-5.000000000000000e-05
	-5.000297834129907e-05

 21	2.100000000000001e+00
	6.657108604874271e-01
	1.331282773370759e+00
	6.657990470045552e-01
	5.000000000000000e+00
	2.100000000000001e+00
	-5.000000000000000e-05
	-5.000451304094886e-05

 22	2.200000000000001e+00
	6.657112862608296e-01
	1.331236586963425e+00
	6.657524576373107e-01
	5.000000000000000e+00
	2.200000000000001e+00
	-5.000000000000000e-05
	-5.000604231290554e-05

 23	2.300000000000001e+00
	6.657117105440110e-01
	1.331190483326688e+00
	6.657059524890109e-01
	5.000000000000000e+00
	2.300000000000001e+00
	-5.000000000000000e-05
	-5.000756618661085e-05

 24	2.400000000000001e+00
	6.657121333450127e-01
	1.331144462163895e+00
	6.656595312551224e-01
	5.000000000000000e+00
	2.400000000000001e+00
	-5.000000000000000e-05
	-5.000908469120120e-05

 25	2.500000000000001e+00
	6.657125546717966e-01
	1.331098523179957e+00
	6.656131936327502e-01
	5.000000000000000e+00
	2.500000000000001e+00
	-5.000000000000000e-05
	-5.001059785547994e-05

 26	2.600000000000001e+00
	6.657129745322171e-01
	1.331052666081315e+00
	6.655669393206223e-01
	5.000000000000000e+00
	2.600000000000001e+00
	-5.000000000000000e-05
	-5.001210570799368e-05

 27	2.700000000000001e+00
	6.657133929340997e-01
	1.331006890576002e+00
	6.655207680191109e-01
	5.000000000000000e+00
	2.700000000000001e+00
	-5.000000000000000e-05
	-5.001360827708087e-05

 28	2.800000000000001e+00
	6.657138098851886e-01
	1.330961196373569e+00
	6.654746794301617e-01
	5.000000000000000e+00
	2.800000000000001e+00
	-5.000000000000000e-05
	-5.001510559080932e-05

 29	2.900000000000001e+00
	6.657142253932018e-01
	1.330915583185167e+00
	6.654286732573662e-01
	5.000000000000000e+00
	2.900000000000001e+00
	-5.000000000000000e-05
	-5.001659767712198e-05

 30	3.000000000000001e+00
	6.657146394657610e-01
	1.330870050723433e+00
	6.653827492058801e-01
	5.000000000000000e+00
	3.000000000000001e+00
	-5.000000000000000e-05
	-5.001808456365645e-05

 31	3.100000000000001e+00
	6.657150521104607e-01
	1.330824598702564e+00
	6.653369069824635e-01
	5.000000000000000e+00
	3.100000000000001e+00
	-5.000000000000000e-05
	-5.001956627795320e-05

 32	3.200000000000002e+00
	6.657154633348338e-01
	1.330779226838259e+00
	6.652911462954170e-01
	5.000000000000000e+00
	3.200000000000002e+00
	-5.000000000000000e-05
	-5.002104284732371e-05

 33	3.300000000000002e+00
	6.657158731463627e-01
	1.330733934847730e+00
	6.652454668546283e-01
	5.000000000000000e+00
	3.300000000000002e+00
	-5.000000000000000e-05
	-5.002251429880886e-05

 34	3.400000000000002e+00
	6.657162815524625e-01
	1.330688722449670e+00
	6.651998683715130e-01
	5.000000000000000e+00
	3.400000000000002e+00
	-5.000000000000000e-05
	-5.002398065940789e-05

 35	3.500000000000002e+00
	6.657166885605103e-01
	1.330643589364271e+00
	6.651543505590261e-01
	5.000000000000000e+00
	3.500000000000002e+00
	-5.000000000000000e-05
	-5.002544195575920e-05

 36	3.600000000000002e+00
	6.657170941778355e-01
	1.330598535313212e+00
	6.651089131316787e-01
	5.000000000000000e+00
	3.600000000000002e+00
	-5.000000000000000e-05
	-5.002689821448041e-05

 37	3.700000000000002e+00
	6.657174984117129e-01
	1.330553560019612e+00
	6.650635558054468e-01
	5.000000000000000e+00
	3.700000000000002e+00
	-5.000000000000000e-05
	-5.002834946186990e-05

 38	3.800000000000002e+00
	6.657179012693447e-01
	1.330508663208052e+00
	6.650182782978513e-01
	5.000000000000000e+00
	3.800000000000002e+00
	-5.000000000000000e-05
	-5.002979572410814e-05

 39	3.900000000000002e+00
	6.657183027579063e-01
	1.330463844604550e+00
	6.649730803278794e-01
	5.000000000000000e+00
	3.900000000000002e+00
	-5.000000000000000e-05
	-5.003123702718821e-05

 40	4.000000000000002e+00
	6.657187028845213e-01
	1.330419103936581e+00
	6.649279616160269e-01
	5.000000000000000e+00
	4.000000000000002e+00
	-5.000000000000000e-05
	-5.003267339688811e-05

 41	4.100000000000001e+00
	6.657191016562494e-01
	1.330374440933004e+00
	6.648829218842127e-01
	5.000000000000000e+00
	4.100000000000001e+00
	-5.000000000000000e-05
	-5.003410485885399e-05

 42	4.200000000000001e+00
	6.657194990801142e-01
	1.330329855324137e+00
	6.648379608558951e-01
	5.000000000000000e+00
	4.200000000000001e+00
	-5.000000000000000e-05
	-5.003553143850302e-05

 43	4.300000000000001e+00
	6.657198951630849e-01
	1.330285346841675e+00
	6.647930782559239e-01
	5.000000000000000e+00
	4.300000000000001e+00
	-5.000000000000000e-05
	-5.003695316116217e-05

 44	4.400000000000000e+00
	6.657202899121017e-01
	1.330240915218729e+00
	6.647482738106252e-01
	5.000000000000000e+00
	4.400000000000000e+00
	-5.000000000000000e-05
	-5.003837005183920e-05

 45	4.500000000000000e+00
	6.657206833340154e-01
	1.330196560189759e+00
	6.647035472477235e-01
	5.000000000000000e+00
	4.500000000000000e+00
	-5.000000000000000e-05
	-5.003978213554189e-05

 46	4.600000000000000e+00
	6.657210754356718e-01
	1.330152281490647e+00
	6.646588982964047e-01
	5.000000000000000e+00
	4.600000000000000e+00
	-5.000000000000000e-05
	-5.004118943700046e-05

 47	4.699999999999999e+00
	6.657214662238314e-01
	1.330108078858576e+00
	6.646143266872232e-01
	5.000000000000000e+00
	4.699999999999999e+00
	-5.000000000000000e-05
	-5.004259198072308e-05

 48	4.799999999999999e+00
	6.657218557052467e-01
	1.330063952032152e+00
	6.645698321521715e-01
	5.000000000000000e+00
	4.799999999999999e+00
	-5.000000000000000e-05
	-5.004398979120405e-05

 49	4.899999999999999e+00
	6.657222438865964e-01
	1.330019900751302e+00
	6.645254144246258e-01
	5.000000000000000e+00
	4.899999999999999e+00
	-5.000000000000000e-05
	-5.004538289260460e-05

 50	4.999999999999998e+00
	6.657226307745329e-01
	1.329975924757292e+00
	6.644810732393396e-01
	5.000000000000000e+00
	4.999999999999998e+00
	-5.000000000000000e-05
	-5.004677130905820e-05

